 (1527802877.957005)  can0  100   [8]  00 66 67 66 69 6A 74 76
 (1527802877.959861)  can0  101   [8]  76 62 61 62 64 67 75 78
 (1527802877.962799)  can0  102   [8]  79 63 61 62 64 65 71 75
 (1527802877.965687)  can0  103   [8]  7B 60 61 61 63 66 68 75
 (1527802877.968626)  can0  104   [8]  79 60 63 63 64 65 67 7A
 (1527802877.971579)  can0  105   [8]  75 5F 61 61 65 64 69 76
 (1527802877.974446)  can0  106   [8]  73 60 63 61 63 6D 70 69
 (1527802877.977333)  can0  107   [8]  6C 61 60 63 65 65 68 69
 (1527802878.057990)  can0  100   [8]  00 65 65 66 66 6B 72 73
 (1527802878.060896)  can0  101   [8]  75 61 61 62 63 66 73 76
 (1527802878.063782)  can0  102   [8]  77 62 60 62 63 64 70 74
 (1527802878.066681)  can0  103   [8]  78 5F 60 61 62 63 67 73
 (1527802878.069609)  can0  104   [8]  77 61 61 65 63 64 69 78
 (1527802878.072533)  can0  105   [8]  74 5F 63 65 63 63 68 72
 (1527802878.075450)  can0  106   [8]  71 60 60 62 62 6C 70 68
 (1527802878.078332)  can0  107   [8]  6A 62 62 60 66 64 69 68
 (1527802878.159008)  can0  100   [8]  00 67 65 67 66 69 73 76
 (1527802878.161858)  can0  101   [8]  78 5F 60 61 64 68 76 79
 (1527802878.164784)  can0  102   [8]  79 61 62 61 64 64 71 75
 (1527802878.167702)  can0  103   [8]  79 5F 63 61 63 66 68 76
 (1527802878.170627)  can0  104   [8]  79 62 61 64 63 64 67 79
 (1527802878.173505)  can0  105   [8]  75 62 62 63 64 64 68 74
 (1527802878.176470)  can0  106   [8]  71 60 61 61 64 6E 6F 69
 (1527802878.179359)  can0  107   [8]  6C 61 65 63 67 67 67 68
 (1527802878.260040)  can0  100   [8]  00 66 67 66 66 69 73 74
 (1527802878.262887)  can0  101   [8]  77 60 60 61 65 66 75 79
 (1527802878.265804)  can0  102   [8]  79 62 60 63 64 63 71 73
 (1527802878.268696)  can0  103   [8]  79 61 60 60 63 66 66 76
 (1527802878.271610)  can0  104   [8]  79 61 61 63 63 62 67 78
 (1527802878.274512)  can0  105   [8]  75 60 62 64 63 64 67 74
 (1527802878.277432)  can0  106   [8]  70 62 62 63 62 70 70 68
 (1527802878.280351)  can0  107   [8]  6B 62 65 63 68 66 6A 6A
 (1527802878.360957)  can0  100   [8]  00 65 66 67 68 69 73 75
 (1527802878.363884)  can0  101   [8]  76 60 5F 61 63 67 75 79
 (1527802878.366802)  can0  102   [8]  78 61 62 62 65 65 70 74
 (1527802878.369729)  can0  103   [8]  7A 60 60 61 62 65 67 73
 (1527802878.372611)  can0  104   [8]  77 61 63 63 64 64 67 78
 (1527802878.375507)  can0  105   [8]  75 61 60 62 65 64 68 72
 (1527802878.378448)  can0  106   [8]  72 60 62 62 63 6F 6E 69
 (1527802878.381328)  can0  107   [8]  6B 62 64 63 67 65 6A 68
 (1527802878.462064)  can0  100   [8]  00 64 66 66 66 69 72 75
 (1527802878.464882)  can0  101   [8]  75 61 5F 62 63 67 75 79
 (1527802878.467800)  can0  102   [8]  7B 62 61 63 63 64 70 75
 (1527802878.470726)  can0  103   [8]  78 5F 62 62 62 65 67 74
 (1527802878.473611)  can0  104   [8]  78 61 61 64 63 63 67 78
 (1527802878.476530)  can0  105   [8]  77 5F 60 63 64 63 67 72
 (1527802878.479488)  can0  106   [8]  74 64 62 62 63 6C 71 6A
 (1527802878.482354)  can0  107   [8]  6B 63 62 64 66 66 69 6A
 (1527802878.562971)  can0  100   [8]  00 66 66 65 66 6A 72 73
 (1527802878.565880)  can0  101   [8]  76 60 5E 60 62 67 75 77
 (1527802878.568797)  can0  102   [8]  79 61 62 62 63 65 71 74
 (1527802878.571709)  can0  103   [8]  79 60 5F 60 62 64 66 73
 (1527802878.574607)  can0  104   [8]  78 61 62 63 63 64 65 77
 (1527802878.577552)  can0  105   [8]  76 60 60 63 64 63 68 73
 (1527802878.580445)  can0  106   [8]  72 61 61 62 62 6E 6F 69
 (1527802878.583378)  can0  107   [8]  6B 61 62 60 63 65 68 67
 (1527802878.664005)  can0  100   [8]  00 66 66 65 66 6A 72 73
 (1527802878.666880)  can0  101   [8]  76 60 5E 60 63 69 76 78
 (1527802878.669787)  can0  102   [8]  78 61 61 62 64 65 73 77
 (1527802878.672702)  can0  103   [8]  7C 61 62 63 63 65 67 73
 (1527802878.675602)  can0  104   [8]  7C 61 61 63 62 64 67 76
 (1527802878.678539)  can0  105   [8]  7A 62 62 64 63 65 66 73
 (1527802878.681465)  can0  106   [8]  7B 61 61 63 63 6E 70 69
 (1527802878.684361)  can0  107   [8]  77 63 63 63 65 66 68 68
 (1527802878.765040)  can0  100   [8]  00 66 65 66 66 6A 74 77
 (1527802878.767881)  can0  101   [8]  78 60 5F 63 63 69 76 78
 (1527802878.770779)  can0  102   [8]  78 61 61 62 64 65 73 77
 (1527802878.773731)  can0  103   [8]  7B 5F 62 60 64 65 68 74
 (1527802878.776629)  can0  104   [8]  7D 63 62 64 64 64 68 79
 (1527802878.779525)  can0  105   [8]  7B 60 62 63 63 64 69 73
 (1527802878.782464)  can0  106   [8]  78 62 63 63 65 6E 6F 6B
 (1527802878.785353)  can0  107   [8]  71 63 65 63 66 68 6B 6C
 (1527802878.865991)  can0  100   [8]  00 68 66 67 66 6A 74 76
 (1527802878.868879)  can0  101   [8]  78 61 62 61 64 6A 77 7A
 (1527802878.871824)  can0  102   [8]  76 63 64 62 64 66 73 79
 (1527802878.874704)  can0  103   [8]  7B 5F 62 60 64 65 68 74
 (1527802878.877602)  can0  104   [8]  7D 63 62 64 64 64 68 78
 (1527802878.880530)  can0  105   [8]  77 61 62 63 65 64 69 74
 (1527802878.883448)  can0  106   [8]  75 62 62 62 63 6E 70 6C
 (1527802878.886352)  can0  107   [8]  6D 64 65 63 66 66 6B 6B
 (1527802878.967021)  can0  100   [8]  00 66 67 67 68 6A 76 76
 (1527802878.969880)  can0  101   [8]  79 61 61 61 64 6A 76 7A
 (1527802878.972796)  can0  102   [8]  78 63 62 61 64 65 71 77
 (1527802878.975707)  can0  103   [8]  7A 61 62 62 63 66 69 75
 (1527802878.978603)  can0  104   [8]  7A 62 63 65 65 64 68 78
 (1527802878.981525)  can0  105   [8]  77 61 62 63 65 64 69 74
 (1527802878.984426)  can0  106   [8]  75 61 61 63 65 70 70 6B
 (1527802878.987350)  can0  107   [8]  6E 64 64 64 68 67 6B 6B
 (1527802879.068059)  can0  100   [8]  00 67 67 67 68 6B 75 76
 (1527802879.070877)  can0  101   [8]  76 60 63 61 64 6A 78 7A
 (1527802879.073804)  can0  102   [8]  7B 64 62 63 65 67 72 75
 (1527802879.076704)  can0  103   [8]  7A 60 63 62 64 67 69 74
 (1527802879.079645)  can0  104   [8]  7A 61 61 65 65 65 64 77
 (1527802879.082567)  can0  105   [8]  79 60 62 63 65 65 6A 75
 (1527802879.085449)  can0  106   [8]  75 61 61 63 65 70 70 6B
 (1527802879.088394)  can0  107   [8]  6E 64 64 64 68 65 67 6A
 (1527802879.169020)  can0  100   [8]  00 67 66 65 67 6B 73 76
 (1527802879.171902)  can0  101   [8]  77 61 5F 60 63 69 76 79
 (1527802879.174849)  can0  102   [8]  7A 64 61 63 65 65 72 75
 (1527802879.177729)  can0  103   [8]  7A 5F 61 62 64 65 68 74
 (1527802879.180650)  can0  104   [8]  79 63 63 64 65 65 67 79
 (1527802879.183551)  can0  105   [8]  78 63 63 64 64 64 69 74
 (1527802879.186456)  can0  106   [8]  74 62 60 62 64 6D 71 6B
 (1527802879.189375)  can0  107   [8]  6C 62 63 62 66 65 67 6A
 (1527802879.270062)  can0  100   [8]  00 67 66 69 68 6B 75 77
 (1527802879.272874)  can0  101   [8]  79 62 61 63 64 69 76 79
 (1527802879.275799)  can0  102   [8]  7C 65 62 64 66 67 71 77
 (1527802879.278730)  can0  103   [8]  7B 60 62 64 65 67 69 75
 (1527802879.281652)  can0  104   [8]  79 60 62 65 65 65 68 77
 (1527802879.284551)  can0  105   [8]  79 61 63 65 66 66 69 74
 (1527802879.287475)  can0  106   [8]  77 63 63 62 63 6F 71 6B
 (1527802879.290376)  can0  107   [8]  6C 65 61 65 67 69 6C 68
 (1527802879.370992)  can0  100   [8]  00 67 66 68 67 6A 74 76
 (1527802879.373885)  can0  101   [8]  77 61 62 64 64 67 77 79
 (1527802879.376802)  can0  102   [8]  7A 63 62 65 66 66 72 78
 (1527802879.379723)  can0  103   [8]  7B 63 64 63 65 67 69 74
 (1527802879.382623)  can0  104   [8]  7A 64 64 66 65 65 66 77
 (1527802879.385550)  can0  105   [8]  79 61 62 65 66 66 68 73
 (1527802879.388453)  can0  106   [8]  74 61 64 64 65 6F 71 6B
 (1527802879.391374)  can0  107   [8]  6C 62 66 62 67 65 6A 68
 (1527802879.472010)  can0  100   [8]  00 68 66 68 69 6A 77 77
 (1527802879.474885)  can0  101   [8]  78 61 62 63 64 67 77 7A
 (1527802879.477796)  can0  102   [8]  7C 63 63 64 64 66 72 78
 (1527802879.480742)  can0  103   [8]  7C 61 63 63 65 67 6A 74
 (1527802879.483624)  can0  104   [8]  7A 61 64 66 65 67 67 78
 (1527802879.486543)  can0  105   [8]  78 62 64 64 66 64 68 75
 (1527802879.489451)  can0  106   [8]  74 62 61 61 65 71 72 6A
 (1527802879.492384)  can0  107   [8]  6D 63 65 61 68 67 6C 69
 (1527802879.572973)  can0  100   [8]  00 69 67 68 69 6A 74 78
 (1527802879.575873)  can0  101   [8]  77 62 61 63 65 68 78 79
 (1527802879.578805)  can0  102   [8]  7B 64 63 63 67 66 71 76
 (1527802879.581735)  can0  103   [8]  7B 61 62 63 64 66 6A 73
 (1527802879.584621)  can0  104   [8]  7B 64 64 66 65 64 67 79
 (1527802879.587561)  can0  105   [8]  79 63 62 65 66 63 68 73
 (1527802879.590447)  can0  106   [8]  76 62 64 64 65 70 72 6C
 (1527802879.593371)  can0  107   [8]  6D 61 64 65 67 68 6A 69
 (1527802879.674022)  can0  100   [8]  00 66 68 67 68 69 74 75
 (1527802879.676873)  can0  101   [8]  78 63 60 63 64 69 75 79
 (1527802879.679797)  can0  102   [8]  7A 61 62 63 65 66 72 75
 (1527802879.682723)  can0  103   [8]  7A 60 62 63 63 65 69 74
 (1527802879.685650)  can0  104   [8]  79 63 62 65 65 66 67 77
 (1527802879.688553)  can0  105   [8]  76 63 62 65 65 65 68 73
 (1527802879.691466)  can0  106   [8]  74 62 64 62 65 6F 72 6A
 (1527802879.694406)  can0  107   [8]  6B 61 62 63 67 66 6A 69
 (1527802879.775067)  can0  100   [8]  00 67 67 69 68 6C 75 78
 (1527802879.777900)  can0  101   [8]  79 63 62 62 65 68 76 7A
 (1527802879.780822)  can0  102   [8]  7B 63 63 63 66 67 72 76
 (1527802879.783722)  can0  103   [8]  7C 62 62 65 65 67 69 74
 (1527802879.786646)  can0  104   [8]  79 64 64 65 66 65 67 76
 (1527802879.789546)  can0  105   [8]  78 61 63 64 66 65 6A 74
 (1527802879.792493)  can0  106   [8]  76 61 61 65 64 71 72 6A
 (1527802879.795398)  can0  107   [8]  6B 63 67 63 67 65 6A 68
 (1527802879.875975)  can0  100   [8]  00 68 68 68 68 6B 76 76
 (1527802879.878871)  can0  101   [8]  7A 63 62 62 64 6A 76 7A
 (1527802879.881797)  can0  102   [8]  7A 63 64 64 66 67 73 76
 (1527802879.884697)  can0  103   [8]  7A 60 62 65 64 68 68 76
 (1527802879.887624)  can0  104   [8]  7A 64 63 66 66 65 67 79
 (1527802879.890545)  can0  105   [8]  78 64 62 65 64 66 69 75
 (1527802879.893463)  can0  106   [8]  75 64 62 66 65 70 72 6C
 (1527802879.896370)  can0  107   [8]  6D 65 65 65 66 67 6B 6A
 (1527802879.977050)  can0  100   [8]  00 67 68 68 67 6B 76 77
 (1527802879.979895)  can0  101   [8]  78 5F 62 63 65 6C 77 7A
 (1527802879.982825)  can0  102   [8]  7A 62 63 63 66 67 72 77
 (1527802879.985748)  can0  103   [8]  7E 63 62 64 65 66 69 75
 (1527802879.988669)  can0  104   [8]  7D 65 62 66 65 66 68 77
 (1527802879.991593)  can0  105   [8]  7E 62 63 65 64 66 6A 73
 (1527802879.994517)  can0  106   [8]  7D 64 63 64 66 6F 73 6A
 (1527802879.997437)  can0  107   [8]  7F 62 63 62 68 67 6D 70
 (1527802880.078004)  can0  100   [8]  00 67 68 68 68 6B 75 76
 (1527802880.080896)  can0  101   [8]  77 61 62 63 64 6C 79 7B
 (1527802880.083813)  can0  102   [8]  76 63 65 64 67 66 74 7C
 (1527802880.086724)  can0  103   [8]  7B 61 63 64 64 68 69 79
 (1527802880.089647)  can0  104   [8]  7D 64 64 65 66 66 6E 7E
 (1527802880.092573)  can0  105   [8]  81 63 63 65 66 68 7F 7F
 (1527802880.095473)  can0  106   [8]  80 62 65 65 6F 7C 81 7F
 (1527802880.098413)  can0  107   [8]  80 63 65 68 75 7C 81 74
 (1527802880.179044)  can0  100   [8]  00 66 67 6A 69 6E 77 76
 (1527802880.181895)  can0  101   [8]  77 62 61 63 67 70 7A 78
 (1527802880.184839)  can0  102   [8]  75 63 62 65 67 69 79 7A
 (1527802880.187744)  can0  103   [8]  78 62 63 64 67 69 7D 7D
 (1527802880.190642)  can0  104   [8]  7A 64 65 68 75 7E 81 80
 (1527802880.193544)  can0  105   [8]  79 64 71 78 7E 80 82 80
 (1527802880.196501)  can0  106   [8]  78 68 73 7D 7F 80 7F 76
 (1527802880.199416)  can0  107   [8]  6F 6C 76 79 7E 71 7C 70
 (1527802880.279973)  can0  100   [8]  00 68 67 68 6A 73 78 77
 (1527802880.282896)  can0  101   [8]  79 64 64 65 68 76 7C 77
 (1527802880.285820)  can0  102   [8]  76 67 67 68 6E 77 7D 77
 (1527802880.288784)  can0  103   [8]  78 67 70 7A 80 82 80 7B
 (1527802880.291667)  can0  104   [8]  7B 70 76 7F 82 80 81 7E
 (1527802880.294569)  can0  105   [8]  7B 79 79 80 81 7E 7F 77
 (1527802880.297511)  can0  106   [8]  75 77 72 7D 6E 7A 78 6D
 (1527802880.300444)  can0  107   [8]  6F 6B 76 6B 6D 72 6E 6A
 (1527802880.381027)  can0  100   [8]  00 6A 6A 6A 6C 77 79 76
 (1527802880.383921)  can0  101   [8]  77 65 67 68 6F 7D 7C 78
 (1527802880.386846)  can0  102   [8]  78 73 7C 82 81 80 7D 76
 (1527802880.389764)  can0  103   [8]  79 74 7F 7F 81 81 7C 78
 (1527802880.392670)  can0  104   [8]  7B 75 79 81 7F 80 74 79
 (1527802880.395580)  can0  105   [8]  78 6F 7A 70 72 79 6C 76
 (1527802880.398508)  can0  106   [8]  76 76 68 6A 78 76 74 6C
 (1527802880.401421)  can0  107   [8]  6D 67 67 66 6A 69 6B 6A
 (1527802880.482074)  can0  100   [8]  00 74 77 7A 79 7B 7A 76
 (1527802880.484918)  can0  101   [8]  75 75 7B 7F 81 81 7D 78
 (1527802880.487819)  can0  102   [8]  75 7A 7E 81 81 80 79 76
 (1527802880.490749)  can0  103   [8]  79 7C 7E 81 81 7F 71 78
 (1527802880.493670)  can0  104   [8]  7B 76 75 70 7D 76 6B 79
 (1527802880.496591)  can0  105   [8]  79 6D 67 73 74 69 69 74
 (1527802880.499542)  can0  106   [8]  75 67 68 6A 66 73 74 6B
 (1527802880.502439)  can0  107   [8]  6C 66 66 68 6A 67 6A 69
 (1527802880.583076)  can0  100   [8]  00 78 7D 7F 7C 7B 78 76
 (1527802880.585917)  can0  101   [8]  76 79 80 80 81 7F 7C 78
 (1527802880.588835)  can0  102   [8]  75 7D 80 81 81 7E 78 77
 (1527802880.591744)  can0  103   [8]  7A 76 78 77 7F 76 6D 76
 (1527802880.594663)  can0  104   [8]  79 6C 6A 78 76 68 69 7A
 (1527802880.597612)  can0  105   [8]  78 65 6D 72 69 67 6B 73
 (1527802880.600514)  can0  106   [8]  73 64 67 67 67 71 73 6B
 (1527802880.603417)  can0  107   [8]  6D 64 64 65 68 68 6C 6B
 (1527802880.684060)  can0  100   [8]  00 79 7D 7D 7B 79 77 76
 (1527802880.686943)  can0  101   [8]  75 7C 7F 7F 7E 7E 7A 77
 (1527802880.689885)  can0  102   [8]  75 78 7F 7F 80 77 76 74
 (1527802880.692793)  can0  103   [8]  77 6D 69 75 79 6B 6B 75
 (1527802880.695720)  can0  104   [8]  78 67 74 73 68 66 66 78
 (1527802880.698630)  can0  105   [8]  77 64 65 66 65 64 6A 74
 (1527802880.701546)  can0  106   [8]  72 64 64 62 65 6E 71 68
 (1527802880.704457)  can0  107   [8]  6B 62 64 64 66 65 67 68
 (1527802880.785101)  can0  100   [8]  00 77 7B 7D 7B 77 78 76
 (1527802880.787943)  can0  101   [8]  76 7D 7F 7F 7E 79 77 76
 (1527802880.790861)  can0  102   [8]  74 78 73 7B 7E 6E 73 74
 (1527802880.793791)  can0  103   [8]  77 67 72 78 6A 68 69 74
 (1527802880.796689)  can0  104   [8]  78 69 6C 67 65 66 68 78
 (1527802880.799619)  can0  105   [8]  77 65 63 67 66 66 68 73
 (1527802880.802559)  can0  106   [8]  72 64 63 64 65 6E 71 6A
 (1527802880.805460)  can0  107   [8]  6B 62 62 66 66 66 6A 68
 (1527802880.886027)  can0  100   [8]  00 77 78 7D 79 72 77 74
 (1527802880.888916)  can0  101   [8]  76 79 7B 7E 7D 73 75 75
 (1527802880.891842)  can0  102   [8]  74 69 6F 7C 72 68 73 73
 (1527802880.894785)  can0  103   [8]  76 74 71 68 66 66 69 75
 (1527802880.897692)  can0  104   [8]  77 63 65 66 65 65 66 78
 (1527802880.900590)  can0  105   [8]  76 62 63 63 66 62 68 72
 (1527802880.903515)  can0  106   [8]  73 64 63 63 64 6E 72 68
 (1527802880.906415)  can0  107   [8]  6D 62 64 64 66 66 69 68
 (1527802880.987073)  can0  100   [8]  00 77 78 7D 79 72 75 75
 (1527802880.989916)  can0  101   [8]  75 71 77 7D 76 6E 78 75
 (1527802880.992838)  can0  102   [8]  74 6F 78 73 68 66 72 75
 (1527802880.995736)  can0  103   [8]  76 68 63 64 65 66 69 74
 (1527802880.998663)  can0  104   [8]  77 61 63 66 64 65 67 77
 (1527802881.001601)  can0  105   [8]  79 63 61 64 64 66 67 73
 (1527802881.004505)  can0  106   [8]  74 61 62 63 64 6E 72 67
 (1527802881.007420)  can0  107   [8]  6B 62 64 61 64 66 69 67
 (1527802881.088072)  can0  100   [8]  00 71 75 7C 77 70 75 75
 (1527802881.090914)  can0  101   [8]  75 71 77 7D 76 6E 78 75
 (1527802881.093843)  can0  102   [8]  74 6F 78 72 68 66 71 74
 (1527802881.096746)  can0  103   [8]  77 66 64 63 65 65 68 74
 (1527802881.099664)  can0  104   [8]  77 63 63 64 65 65 66 76
 (1527802881.102562)  can0  105   [8]  76 60 60 63 64 63 67 72
 (1527802881.105516)  can0  106   [8]  72 62 62 62 64 6E 71 66
 (1527802881.108412)  can0  107   [8]  6B 63 63 64 65 68 69 68
 (1527802881.189093)  can0  100   [8]  00 6F 73 7C 75 6E 76 75
 (1527802881.191939)  can0  101   [8]  74 6D 77 7C 77 6E 77 75
 (1527802881.194858)  can0  102   [8]  75 71 78 72 68 66 71 74
 (1527802881.197785)  can0  103   [8]  77 66 64 63 65 65 68 73
 (1527802881.200691)  can0  104   [8]  77 61 62 66 65 65 67 77
 (1527802881.203597)  can0  105   [8]  74 60 61 63 64 64 68 72
 (1527802881.206499)  can0  106   [8]  72 60 63 62 63 6E 71 69
 (1527802881.209410)  can0  107   [8]  6A 63 63 63 67 66 68 69
 (1527802881.290072)  can0  100   [8]  00 6E 72 79 76 6E 74 72
 (1527802881.292915)  can0  101   [8]  74 70 79 7C 79 6D 74 76
 (1527802881.295842)  can0  102   [8]  73 6B 73 76 6B 66 71 72
 (1527802881.298768)  can0  103   [8]  74 6F 69 64 64 65 67 73
 (1527802881.301662)  can0  104   [8]  77 61 62 66 65 65 67 77
 (1527802881.304587)  can0  105   [8]  74 60 61 66 64 65 68 71
 (1527802881.307499)  can0  106   [8]  73 62 61 63 65 6E 71 69
 (1527802881.310410)  can0  107   [8]  6A 63 65 62 66 64 6B 68
 (1527802881.391099)  can0  100   [8]  00 76 79 7B 78 71 75 74
 (1527802881.393912)  can0  101   [8]  74 76 7B 7D 7C 6F 78 76
 (1527802881.396848)  can0  102   [8]  74 6C 72 7D 76 69 73 74
 (1527802881.399765)  can0  103   [8]  75 69 75 6E 65 66 67 75
 (1527802881.402689)  can0  104   [8]  77 68 67 65 66 65 68 78
 (1527802881.405586)  can0  105   [8]  76 61 63 66 64 65 68 71
 (1527802881.408519)  can0  106   [8]  73 62 61 63 65 6E 71 69
 (1527802881.411422)  can0  107   [8]  6C 65 66 64 66 68 68 6A
 (1527802881.492029)  can0  100   [8]  00 79 7B 7C 79 72 76 75
 (1527802881.494969)  can0  101   [8]  75 7D 7E 7F 7D 76 78 75
 (1527802881.497900)  can0  102   [8]  75 7A 7E 7E 7D 6D 73 73
 (1527802881.500805)  can0  103   [8]  77 74 6F 7A 74 68 68 75
 (1527802881.503708)  can0  104   [8]  78 67 72 72 68 65 67 77
 (1527802881.506653)  can0  105   [8]  76 66 67 67 66 65 68 72
 (1527802881.509535)  can0  106   [8]  71 65 65 63 65 6E 72 6B
 (1527802881.512457)  can0  107   [8]  6C 65 66 64 66 68 68 6A
 (1527802881.593013)  can0  100   [8]  00 75 76 78 78 74 77 75
 (1527802881.595924)  can0  101   [8]  74 74 77 7C 79 79 79 75
 (1527802881.598863)  can0  102   [8]  72 7C 7E 7F 7E 70 73 75
 (1527802881.601784)  can0  103   [8]  77 7A 7E 7C 7C 6D 68 75
 (1527802881.604707)  can0  104   [8]  78 77 73 77 75 67 66 77
 (1527802881.607611)  can0  105   [8]  76 6B 6A 74 68 65 69 72
 (1527802881.610553)  can0  106   [8]  72 67 65 65 67 70 70 69
 (1527802881.613459)  can0  107   [8]  6C 64 67 64 69 67 68 69
 (1527802881.694091)  can0  100   [8]  00 6B 68 6C 6F 76 75 74
 (1527802881.696911)  can0  101   [8]  74 65 66 68 71 79 78 75
 (1527802881.699836)  can0  102   [8]  75 6C 71 79 7D 73 75 74
 (1527802881.702761)  can0  103   [8]  75 78 7C 7F 7C 71 6A 75
 (1527802881.705702)  can0  104   [8]  77 79 7C 7D 7E 6D 67 78
 (1527802881.708608)  can0  105   [8]  78 75 76 70 76 67 68 71
 (1527802881.711571)  can0  106   [8]  72 6D 6A 6C 6A 6F 71 6B
 (1527802881.714433)  can0  107   [8]  6B 66 67 66 68 67 68 69
 (1527802881.795054)  can0  100   [8]  00 68 67 68 6C 76 75 73
 (1527802881.797909)  can0  101   [8]  73 63 64 65 6B 7A 78 75
 (1527802881.800834)  can0  102   [8]  71 64 67 68 73 77 73 73
 (1527802881.803760)  can0  103   [8]  76 65 6A 79 7B 74 6A 73
 (1527802881.806683)  can0  104   [8]  78 71 7B 7E 7C 74 68 77
 (1527802881.809609)  can0  105   [8]  73 73 79 7C 79 6E 68 72
 (1527802881.812518)  can0  106   [8]  72 6D 71 6B 73 70 72 68
 (1527802881.815431)  can0  107   [8]  69 67 69 65 6A 67 6B 67
 (1527802881.896094)  can0  100   [8]  00 66 67 69 6B 75 74 74
 (1527802881.898909)  can0  101   [8]  75 62 61 63 6C 7A 78 76
 (1527802881.901843)  can0  102   [8]  74 65 63 66 70 76 75 73
 (1527802881.904760)  can0  103   [8]  76 62 65 6E 7A 76 69 75
 (1527802881.907684)  can0  104   [8]  77 67 73 7E 7F 77 6A 77
 (1527802881.910608)  can0  105   [8]  75 6C 79 7E 79 74 69 74
 (1527802881.913560)  can0  106   [8]  74 6B 72 70 6F 74 71 68
 (1527802881.916430)  can0  107   [8]  6B 69 67 69 68 69 6A 68
 (1527802881.997089)  can0  100   [8]  00 65 67 69 6C 76 75 74
 (1527802881.999906)  can0  101   [8]  77 61 61 63 6C 79 77 75
 (1527802882.002853)  can0  102   [8]  73 61 63 66 71 77 75 74
 (1527802882.005776)  can0  103   [8]  76 62 65 6D 7D 78 69 75
 (1527802882.008710)  can0  104   [8]  78 63 6D 7E 7E 76 69 77
 (1527802882.011619)  can0  105   [8]  75 64 67 7A 73 6D 67 73
 (1527802882.014532)  can0  106   [8]  72 64 65 6A 69 70 70 6A
 (1527802882.017429)  can0  107   [8]  6C 64 64 62 67 65 68 69
 (1527802882.098021)  can0  100   [8]  00 67 69 67 6E 75 75 74
 (1527802882.100907)  can0  101   [8]  74 62 62 65 70 7A 78 74
 (1527802882.103836)  can0  102   [8]  74 63 64 6A 7C 73 72 72
 (1527802882.106733)  can0  103   [8]  77 62 68 7C 7C 6F 68 75
 (1527802882.109683)  can0  104   [8]  78 64 66 77 7B 69 67 76
 (1527802882.112606)  can0  105   [8]  76 63 63 68 6A 63 67 70
 (1527802882.115536)  can0  106   [8]  6F 60 63 64 64 6D 70 6A
 (1527802882.118426)  can0  107   [8]  6A 63 63 64 66 67 6A 6A
 (1527802882.199091)  can0  100   [8]  00 67 68 69 71 70 75 74
 (1527802882.201907)  can0  101   [8]  75 62 63 68 77 73 75 73
 (1527802882.204839)  can0  102   [8]  71 64 65 77 7A 69 72 72
 (1527802882.207758)  can0  103   [8]  76 62 68 7B 77 66 67 73
 (1527802882.210678)  can0  104   [8]  77 63 64 74 70 64 67 76
 (1527802882.213581)  can0  105   [8]  76 61 63 65 65 64 66 73
 (1527802882.216528)  can0  106   [8]  71 62 62 62 66 6E 70 68
 (1527802882.219405)  can0  107   [8]  6A 63 62 62 65 64 68 67
 (1527802882.300021)  can0  100   [8]  00 65 67 69 71 6D 74 73
 (1527802882.302912)  can0  101   [8]  71 62 62 64 73 71 75 73
 (1527802882.305830)  can0  102   [8]  71 63 64 6F 78 67 70 71
 (1527802882.308802)  can0  103   [8]  75 60 64 77 77 64 67 74
 (1527802882.311654)  can0  104   [8]  78 61 63 70 76 64 66 76
 (1527802882.314580)  can0  105   [8]  74 61 60 64 65 63 66 71
 (1527802882.317510)  can0  106   [8]  6F 62 61 62 62 6E 6F 65
 (1527802882.320411)  can0  107   [8]  69 60 60 62 64 65 67 65
 (1527802882.401054)  can0  100   [8]  00 66 68 67 6F 72 76 73
 (1527802882.403909)  can0  101   [8]  73 60 61 63 6F 74 78 74
 (1527802882.406831)  can0  102   [8]  71 62 63 67 77 6B 72 72
 (1527802882.409794)  can0  103   [8]  74 5F 61 6E 79 6B 67 73
 (1527802882.412684)  can0  104   [8]  77 62 63 6C 79 68 67 77
 (1527802882.415605)  can0  105   [8]  75 60 62 64 66 66 65 72
 (1527802882.418531)  can0  106   [8]  70 62 63 61 65 6D 71 69
 (1527802882.421426)  can0  107   [8]  6A 62 62 64 65 63 6A 67
 (1527802882.502114)  can0  100   [8]  00 67 65 67 6B 71 75 72
 (1527802882.504929)  can0  101   [8]  73 60 62 65 6F 73 77 74
 (1527802882.507854)  can0  102   [8]  73 61 63 66 77 6C 70 73
 (1527802882.510797)  can0  103   [8]  77 61 63 70 7A 6A 68 74
 (1527802882.513681)  can0  104   [8]  77 62 62 6B 75 68 66 77
 (1527802882.516593)  can0  105   [8]  72 61 61 64 65 64 66 71
 (1527802882.519521)  can0  106   [8]  70 60 60 61 64 6C 70 66
 (1527802882.522403)  can0  107   [8]  68 65 61 63 64 66 67 66
 (1527802882.603053)  can0  100   [8]  00 65 66 67 70 6E 74 71
 (1527802882.605905)  can0  101   [8]  73 61 60 64 70 72 75 72
 (1527802882.608829)  can0  102   [8]  71 64 63 69 79 69 72 74
 (1527802882.611731)  can0  103   [8]  74 62 65 76 78 67 67 74
 (1527802882.614651)  can0  104   [8]  77 60 64 70 73 64 65 75
 (1527802882.617550)  can0  105   [8]  74 64 62 66 65 63 66 72
 (1527802882.620487)  can0  106   [8]  70 60 62 61 63 6E 70 67
 (1527802882.623376)  can0  107   [8]  69 64 61 63 64 63 69 68
 (1527802882.704043)  can0  100   [8]  00 67 66 68 71 6F 74 73
 (1527802882.706927)  can0  101   [8]  75 63 63 65 76 70 75 73
 (1527802882.709830)  can0  102   [8]  72 64 64 76 78 67 71 73
 (1527802882.712785)  can0  103   [8]  75 63 6E 7B 76 66 65 73
 (1527802882.715676)  can0  104   [8]  76 61 69 75 70 64 67 76
 (1527802882.718612)  can0  105   [8]  73 62 61 66 64 62 67 71
 (1527802882.721508)  can0  106   [8]  71 62 62 63 63 6D 70 68
 (1527802882.724435)  can0  107   [8]  6B 61 63 64 63 65 67 68
 (1527802882.805050)  can0  100   [8]  00 68 67 6E 73 6E 73 71
 (1527802882.807928)  can0  101   [8]  71 63 64 6C 78 6E 75 72
 (1527802882.810868)  can0  102   [8]  71 67 75 7A 78 67 71 71
 (1527802882.813794)  can0  103   [8]  75 73 79 7C 79 67 67 72
 (1527802882.816700)  can0  104   [8]  75 74 75 6F 73 66 66 76
 (1527802882.819602)  can0  105   [8]  72 71 70 65 70 63 64 71
 (1527802882.822536)  can0  106   [8]  71 66 69 61 63 6E 6F 68
 (1527802882.825486)  can0  107   [8]  6A 63 63 63 65 66 69 67
 (1527802882.906046)  can0  100   [8]  00 6C 70 76 76 70 75 74
 (1527802882.908926)  can0  101   [8]  75 6A 74 7D 7A 71 77 74
 (1527802882.911870)  can0  102   [8]  74 7A 7D 7D 7C 6E 71 73
 (1527802882.914791)  can0  103   [8]  76 79 7C 7C 7C 6F 67 74
 (1527802882.917705)  can0  104   [8]  77 79 78 6E 70 6E 66 76
 (1527802882.920626)  can0  105   [8]  75 6E 73 66 6B 70 67 71
 (1527802882.923567)  can0  106   [8]  72 6F 6C 65 63 70 71 6C
 (1527802882.926450)  can0  107   [8]  6A 6A 66 65 68 67 6B 69
 (1527802883.007000)  can0  100   [8]  00 74 78 79 79 74 76 74
 (1527802883.009925)  can0  101   [8]  74 71 7E 7D 7C 76 79 74
 (1527802883.012878)  can0  102   [8]  73 7C 7E 7F 7E 77 74 74
 (1527802883.015778)  can0  103   [8]  75 7A 7D 7E 7D 78 69 74
 (1527802883.018700)  can0  104   [8]  78 77 7B 70 6A 78 6B 78
 (1527802883.021625)  can0  105   [8]  76 6D 77 66 66 76 6C 72
 (1527802883.024558)  can0  106   [8]  73 6F 72 63 64 73 72 69
 (1527802883.027492)  can0  107   [8]  6D 6F 6A 66 69 65 6B 68
 (1527802883.108066)  can0  100   [8]  00 78 7A 7A 79 75 76 76
 (1527802883.110949)  can0  101   [8]  75 76 7E 7E 7E 7A 78 74
 (1527802883.113905)  can0  102   [8]  73 7B 7E 7E 7F 7C 75 74
 (1527802883.116827)  can0  103   [8]  77 7B 7D 7D 7D 7F 6D 73
 (1527802883.119760)  can0  104   [8]  77 7C 7C 76 6A 72 71 7A
 (1527802883.122656)  can0  105   [8]  76 71 7A 6A 66 6F 78 74
 (1527802883.125572)  can0  106   [8]  73 6F 77 66 65 72 76 6A
 (1527802883.128512)  can0  107   [8]  6B 73 6F 66 68 66 6A 69
 (1527802883.209025)  can0  100   [8]  00 79 7C 7B 78 78 77 76
 (1527802883.211975)  can0  101   [8]  74 7A 7E 7F 7D 7D 79 75
 (1527802883.214897)  can0  102   [8]  75 7E 7E 7F 7F 7F 78 75
 (1527802883.217822)  can0  103   [8]  77 7E 7E 7E 7E 7F 71 78
 (1527802883.220765)  can0  104   [8]  78 7B 7D 77 6C 74 74 78
 (1527802883.223691)  can0  105   [8]  76 6E 7B 6A 67 6B 7A 76
 (1527802883.226599)  can0  106   [8]  72 6F 78 65 63 70 79 6C
 (1527802883.229545)  can0  107   [8]  6C 75 71 66 67 67 6A 69
 (1527802883.310112)  can0  100   [8]  00 78 7B 7C 79 79 77 75
 (1527802883.312974)  can0  101   [8]  76 7E 7D 7E 7E 7E 78 74
 (1527802883.315899)  can0  102   [8]  72 7E 7F 7F 7F 7E 79 74
 (1527802883.318849)  can0  103   [8]  76 7C 7F 7E 7E 7E 75 75
 (1527802883.321775)  can0  104   [8]  78 7D 7D 7B 6D 6F 78 79
 (1527802883.324677)  can0  105   [8]  76 71 79 6E 65 67 7B 77
 (1527802883.327619)  can0  106   [8]  74 6E 7A 68 65 6D 79 6B
 (1527802883.330544)  can0  107   [8]  6D 6E 78 64 67 67 69 68
 (1527802883.411069)  can0  100   [8]  00 78 7B 7C 79 79 77 75
 (1527802883.413947)  can0  101   [8]  76 7E 7D 7E 7E 80 7B 76
 (1527802883.416902)  can0  102   [8]  73 7D 7F 80 7F 7F 7B 75
 (1527802883.419854)  can0  103   [8]  76 7C 7F 7F 7F 7F 79 76
 (1527802883.422802)  can0  104   [8]  79 7D 7C 7C 6E 6D 7A 7A
 (1527802883.425684)  can0  105   [8]  77 72 77 72 67 66 7A 7A
 (1527802883.428596)  can0  106   [8]  74 6C 7A 6A 66 71 79 6E
 (1527802883.431521)  can0  107   [8]  6D 71 7A 67 69 67 6B 6B
 (1527802883.512054)  can0  100   [8]  00 79 7B 7A 7A 7A 79 74
 (1527802883.514972)  can0  101   [8]  74 7E 7F 7F 7E 80 7B 76
 (1527802883.517933)  can0  102   [8]  73 7D 7F 80 7F 7F 7B 75
 (1527802883.520847)  can0  103   [8]  76 7C 7D 7C 7D 7F 75 77
 (1527802883.523814)  can0  104   [8]  7A 7B 7C 7D 6C 6F 77 7B
 (1527802883.526695)  can0  105   [8]  77 74 77 6F 67 68 7C 75
 (1527802883.529618)  can0  106   [8]  75 6C 77 69 63 71 79 6B
 (1527802883.532519)  can0  107   [8]  6A 6D 75 66 67 68 69 69
 (1527802883.613037)  can0  100   [8]  00 77 7C 7B 7A 7A 78 75
 (1527802883.615972)  can0  101   [8]  75 7B 7F 7F 7F 7C 7A 77
 (1527802883.618937)  can0  102   [8]  74 7E 7F 81 7F 7F 79 75
 (1527802883.621847)  can0  103   [8]  76 7E 7D 7C 7D 7F 75 77
 (1527802883.624805)  can0  104   [8]  7A 7B 7C 7D 6C 6F 6B 77
 (1527802883.627716)  can0  105   [8]  75 78 73 6E 6D 77 68 72
 (1527802883.630620)  can0  106   [8]  72 6B 73 65 70 73 72 69
 (1527802883.633546)  can0  107   [8]  6A 66 67 66 67 67 68 6A
 (1527802883.714018)  can0  100   [8]  00 73 78 79 78 77 77 73
 (1527802883.716968)  can0  101   [8]  73 6E 7B 7B 7D 7B 77 75
 (1527802883.719920)  can0  102   [8]  75 7D 7D 7F 7F 7D 76 73
 (1527802883.722845)  can0  103   [8]  75 76 7C 7C 7C 7C 6D 74
 (1527802883.725778)  can0  104   [8]  77 7B 7C 7A 71 7A 6B 77
 (1527802883.728669)  can0  105   [8]  75 78 73 6E 6D 77 68 72
 (1527802883.731597)  can0  106   [8]  72 6B 65 65 66 6E 6F 68
 (1527802883.734523)  can0  107   [8]  6B 62 64 63 66 65 67 65
 (1527802883.815070)  can0  100   [8]  00 6A 68 72 76 75 75 73
 (1527802883.817919)  can0  101   [8]  74 64 64 70 79 77 76 73
 (1527802883.820848)  can0  102   [8]  72 68 70 7B 7C 6F 71 72
 (1527802883.823795)  can0  103   [8]  76 6A 7A 7C 7B 6E 66 72
 (1527802883.826699)  can0  104   [8]  75 68 79 7B 7A 69 65 76
 (1527802883.829620)  can0  105   [8]  74 65 68 76 73 66 66 72
 (1527802883.832540)  can0  106   [8]  71 62 65 65 66 6E 6F 68
 (1527802883.835461)  can0  107   [8]  6B 62 64 63 66 65 67 64
 (1527802883.916065)  can0  100   [8]  00 65 65 68 72 71 72 72
 (1527802883.918920)  can0  101   [8]  70 60 61 66 77 70 74 70
 (1527802883.921837)  can0  102   [8]  70 62 64 77 79 6A 70 70
 (1527802883.924745)  can0  103   [8]  74 61 6A 79 77 67 65 71
 (1527802883.927668)  can0  104   [8]  74 60 66 78 78 65 64 73
 (1527802883.930584)  can0  105   [8]  73 60 61 67 69 63 65 70
 (1527802883.933516)  can0  106   [8]  70 5F 61 60 63 6B 6E 66
 (1527802883.936391)  can0  107   [8]  67 62 60 60 63 64 69 64
 (1527802884.017102)  can0  100   [8]  00 66 64 66 71 6F 74 71
 (1527802884.019918)  can0  101   [8]  73 60 61 63 72 71 74 72
 (1527802884.022863)  can0  102   [8]  70 61 63 6A 77 6A 70 72
 (1527802884.025771)  can0  103   [8]  74 5F 62 77 78 67 65 71
 (1527802884.028691)  can0  104   [8]  76 5F 65 74 78 66 63 76
 (1527802884.031596)  can0  105   [8]  74 60 62 65 6A 63 64 70
 (1527802884.034532)  can0  106   [8]  71 5F 5F 61 63 6D 6E 67
 (1527802884.037437)  can0  107   [8]  68 62 60 62 65 64 67 67
 (1527802884.118104)  can0  100   [8]  00 62 66 66 6E 70 72 74
 (1527802884.120919)  can0  101   [8]  73 60 5E 62 6C 72 74 71
 (1527802884.123846)  can0  102   [8]  72 60 60 65 76 6C 70 6F
 (1527802884.126761)  can0  103   [8]  75 5E 60 6C 78 6A 65 72
 (1527802884.129669)  can0  104   [8]  75 61 61 6C 79 69 64 75
 (1527802884.132566)  can0  105   [8]  73 60 61 63 68 63 65 71
 (1527802884.135504)  can0  106   [8]  70 60 60 5F 63 6B 6E 68
 (1527802884.138403)  can0  107   [8]  6A 63 60 5F 64 64 69 67
 (1527802884.219040)  can0  100   [8]  00 63 63 66 69 70 73 71
 (1527802884.221944)  can0  101   [8]  72 5F 5F 5F 69 75 75 71
 (1527802884.224865)  can0  102   [8]  70 62 5F 62 6D 6F 71 71
 (1527802884.227794)  can0  103   [8]  72 5E 5F 63 76 6E 65 74
 (1527802884.230690)  can0  104   [8]  76 61 61 64 76 6E 64 76
 (1527802884.233615)  can0  105   [8]  72 5F 61 62 64 63 67 71
 (1527802884.236560)  can0  106   [8]  6F 60 60 62 61 6D 6F 67
 (1527802884.239508)  can0  107   [8]  68 60 62 60 64 63 68 68
 (1527802884.320033)  can0  100   [8]  00 65 62 65 69 70 73 71
 (1527802884.322942)  can0  101   [8]  71 5F 5F 60 66 76 76 73
 (1527802884.325840)  can0  102   [8]  70 60 60 62 68 72 72 71
 (1527802884.328766)  can0  103   [8]  74 5E 5E 60 6D 73 66 73
 (1527802884.331691)  can0  104   [8]  75 5E 60 63 6E 71 65 75
 (1527802884.334608)  can0  105   [8]  74 5F 61 62 64 63 65 70
 (1527802884.337551)  can0  106   [8]  6F 5F 5E 60 61 6B 70 67
 (1527802884.340451)  can0  107   [8]  6A 60 62 60 65 63 67 66
 (1527802884.421060)  can0  100   [8]  00 63 62 65 65 71 72 71
 (1527802884.423942)  can0  101   [8]  72 5F 5F 61 63 74 75 71
 (1527802884.426884)  can0  102   [8]  6F 61 60 60 67 72 71 70
 (1527802884.429768)  can0  103   [8]  72 5C 5F 5E 68 75 68 71
 (1527802884.432689)  can0  104   [8]  74 5D 61 62 67 6F 65 75
 (1527802884.435616)  can0  105   [8]  71 5F 60 61 63 60 66 6F
 (1527802884.438530)  can0  106   [8]  6F 5E 61 62 60 6A 6E 67
 (1527802884.441439)  can0  107   [8]  68 64 61 62 64 65 67 67
 (1527802884.522087)  can0  100   [8]  00 64 63 67 68 72 75 71
 (1527802884.524940)  can0  101   [8]  70 60 5F 60 64 75 75 73
 (1527802884.527860)  can0  102   [8]  72 60 61 62 65 72 71 71
 (1527802884.530769)  can0  103   [8]  73 5F 60 62 67 76 68 73
 (1527802884.533688)  can0  104   [8]  77 62 60 64 66 6F 65 77
 (1527802884.536590)  can0  105   [8]  75 60 61 62 62 63 66 73
 (1527802884.539525)  can0  106   [8]  70 60 62 61 61 6D 6F 68
 (1527802884.542413)  can0  107   [8]  69 60 61 61 67 63 68 67
 (1527802884.623124)  can0  100   [8]  00 62 66 66 66 71 73 73
 (1527802884.625943)  can0  101   [8]  72 5D 60 60 64 73 77 71
 (1527802884.628840)  can0  102   [8]  71 61 61 63 64 74 72 72
 (1527802884.631790)  can0  103   [8]  77 5F 5F 5E 66 76 69 73
 (1527802884.634688)  can0  104   [8]  75 62 62 63 69 70 67 76
 (1527802884.637613)  can0  105   [8]  75 5F 62 62 63 64 65 73
 (1527802884.640566)  can0  106   [8]  71 62 5F 61 61 6D 6F 69
 (1527802884.643437)  can0  107   [8]  6B 62 63 61 67 66 69 68
 (1527802884.724038)  can0  100   [8]  00 66 65 63 68 73 73 72
 (1527802884.726941)  can0  101   [8]  72 61 5E 62 66 76 74 74
 (1527802884.729884)  can0  102   [8]  6F 60 60 61 68 73 72 71
 (1527802884.732797)  can0  103   [8]  73 5F 5F 63 6E 74 67 72
 (1527802884.735714)  can0  104   [8]  76 60 5F 65 6E 71 66 76
 (1527802884.738615)  can0  105   [8]  75 60 60 62 64 63 66 70
 (1527802884.741534)  can0  106   [8]  70 61 61 60 62 6D 6F 6A
 (1527802884.744457)  can0  107   [8]  68 62 63 63 65 65 67 67
 (1527802884.825130)  can0  100   [8]  00 64 65 67 68 73 73 73
 (1527802884.827940)  can0  101   [8]  74 60 5E 60 68 76 76 73
 (1527802884.830861)  can0  102   [8]  6F 61 61 63 6D 73 71 73
 (1527802884.833786)  can0  103   [8]  73 60 61 65 77 73 67 73
 (1527802884.836711)  can0  104   [8]  76 63 60 68 79 71 67 76
 (1527802884.839613)  can0  105   [8]  75 61 60 62 66 66 68 73
 (1527802884.842549)  can0  106   [8]  6F 61 61 61 64 6E 72 68
 (1527802884.845460)  can0  107   [8]  69 61 62 61 66 65 68 67
 (1527802884.926075)  can0  100   [8]  00 66 65 66 6B 72 73 72
 (1527802884.928942)  can0  101   [8]  72 60 61 63 6B 75 76 71
 (1527802884.931863)  can0  102   [8]  71 62 61 65 77 70 72 71
 (1527802884.934808)  can0  103   [8]  74 5E 63 73 7B 71 67 72
 (1527802884.937712)  can0  104   [8]  77 5F 68 7A 73 6E 67 76
 (1527802884.940638)  can0  105   [8]  72 62 65 72 6C 66 66 71
 (1527802884.943568)  can0  106   [8]  6F 62 62 64 64 6E 6F 69
 (1527802884.946472)  can0  107   [8]  69 62 64 63 65 64 68 66
 (1527802885.027042)  can0  100   [8]  00 68 66 69 71 73 74 74
 (1527802885.029936)  can0  101   [8]  72 60 61 65 75 77 75 73
 (1527802885.032877)  can0  102   [8]  72 64 64 73 7B 6E 70 72
 (1527802885.035788)  can0  103   [8]  75 64 71 7C 7C 75 68 74
 (1527802885.038685)  can0  104   [8]  77 67 72 7A 70 70 68 78
 (1527802885.041608)  can0  105   [8]  74 64 70 72 68 69 67 72
 (1527802885.044510)  can0  106   [8]  71 62 67 68 64 6F 72 68
 (1527802885.047415)  can0  107   [8]  6A 65 67 65 67 66 68 68
 (1527802885.128065)  can0  100   [8]  00 66 68 6C 74 74 74 74
 (1527802885.130938)  can0  101   [8]  71 62 65 68 78 77 76 74
 (1527802885.133906)  can0  102   [8]  72 67 69 7B 7D 75 72 72
 (1527802885.136785)  can0  103   [8]  75 6A 77 7B 7B 79 6A 73
 (1527802885.139738)  can0  104   [8]  77 69 76 7A 6F 71 68 77
 (1527802885.142650)  can0  105   [8]  74 69 71 73 69 6B 69 72
 (1527802885.145561)  can0  106   [8]  70 65 69 70 66 6F 72 67
 (1527802885.148463)  can0  107   [8]  6A 65 64 64 68 68 6B 67
 (1527802885.229067)  can0  100   [8]  00 67 69 6E 75 74 75 73
 (1527802885.231961)  can0  101   [8]  72 64 64 6D 7A 77 76 74
 (1527802885.234895)  can0  102   [8]  71 69 72 7D 7E 79 74 72
 (1527802885.237814)  can0  103   [8]  77 70 75 7C 7D 7B 6C 74
 (1527802885.240713)  can0  104   [8]  77 6E 77 79 71 70 6C 78
 (1527802885.243642)  can0  105   [8]  74 6D 72 74 69 68 6D 72
 (1527802885.246577)  can0  106   [8]  71 69 68 73 65 6D 70 68
 (1527802885.249463)  can0  107   [8]  6A 64 67 69 68 66 68 67
 (1527802885.330067)  can0  100   [8]  00 69 6C 74 75 76 76 73
 (1527802885.332961)  can0  101   [8]  72 67 69 78 7D 79 76 74
 (1527802885.335884)  can0  102   [8]  71 74 7B 7F 7E 7D 74 74
 (1527802885.338815)  can0  103   [8]  78 6C 7A 7F 7B 7A 6C 75
 (1527802885.341736)  can0  104   [8]  77 77 77 78 6C 6A 72 78
 (1527802885.344659)  can0  105   [8]  74 6F 6D 76 68 66 6D 73
 (1527802885.347598)  can0  106   [8]  71 6B 68 73 66 70 6F 6A
 (1527802885.350483)  can0  107   [8]  6D 66 67 67 6A 68 6B 68
 (1527802885.431115)  can0  100   [8]  00 6D 73 78 77 77 74 74
 (1527802885.433960)  can0  101   [8]  72 6B 76 7C 7C 7B 78 73
 (1527802885.436914)  can0  102   [8]  71 71 79 7E 7C 7D 76 73
 (1527802885.439837)  can0  103   [8]  75 77 78 7C 77 72 73 75
 (1527802885.442732)  can0  104   [8]  77 6F 76 75 6C 65 74 78
 (1527802885.445694)  can0  105   [8]  76 75 69 76 67 63 6B 73
 (1527802885.448610)  can0  106   [8]  73 68 67 71 64 6F 71 68
 (1527802885.451516)  can0  107   [8]  6A 65 66 64 66 65 67 66
 (1527802885.532142)  can0  100   [8]  00 73 78 7A 79 78 77 73
 (1527802885.534984)  can0  101   [8]  73 72 79 7E 7D 7D 78 75
 (1527802885.537929)  can0  102   [8]  72 6F 7B 7D 7F 7D 78 72
 (1527802885.540840)  can0  103   [8]  78 77 76 7D 77 71 76 75
 (1527802885.543755)  can0  104   [8]  77 6F 77 77 6D 65 75 78
 (1527802885.546681)  can0  105   [8]  76 73 69 76 68 63 6A 74
 (1527802885.549622)  can0  106   [8]  73 69 67 74 66 6E 71 69
 (1527802885.552526)  can0  107   [8]  6A 69 68 68 68 65 68 68
 (1527802885.633111)  can0  100   [8]  00 72 75 78 7A 79 77 74
 (1527802885.635960)  can0  101   [8]  75 6D 73 7D 7D 7B 78 75
 (1527802885.638906)  can0  102   [8]  72 73 78 7E 7F 7F 77 74
 (1527802885.641832)  can0  103   [8]  76 74 77 7E 7A 75 76 76
 (1527802885.644758)  can0  104   [8]  77 73 77 77 6E 66 75 7A
 (1527802885.647697)  can0  105   [8]  75 70 6D 76 68 66 6A 73
 (1527802885.650623)  can0  106   [8]  73 69 67 74 66 6F 70 69
 (1527802885.653507)  can0  107   [8]  6A 68 65 68 66 68 68 68
 (1527802885.734057)  can0  100   [8]  00 72 75 78 7A 79 77 74
 (1527802885.736957)  can0  101   [8]  74 66 67 77 7B 7A 76 75
 (1527802885.739904)  can0  102   [8]  72 6F 77 7E 7F 7D 76 74
 (1527802885.742853)  can0  103   [8]  77 71 77 7C 7D 7B 72 75
 (1527802885.745795)  can0  104   [8]  79 72 77 7A 73 69 77 79
 (1527802885.748708)  can0  105   [8]  75 73 75 72 6B 67 74 73
 (1527802885.751658)  can0  106   [8]  73 69 6F 70 66 6F 70 69
 (1527802885.754531)  can0  107   [8]  6B 68 66 67 67 67 6A 6A
 (1527802885.835135)  can0  100   [8]  00 6C 6D 75 78 76 74 75
 (1527802885.837955)  can0  101   [8]  74 66 67 77 7B 7A 76 75
 (1527802885.840924)  can0  102   [8]  72 6F 77 7E 7F 78 74 72
 (1527802885.843850)  can0  103   [8]  76 67 74 7C 7E 7D 6C 77
 (1527802885.846759)  can0  104   [8]  79 70 75 7D 7C 78 6C 79
 (1527802885.849660)  can0  105   [8]  73 6A 76 78 72 6E 70 71
 (1527802885.852593)  can0  106   [8]  71 69 71 70 6D 72 71 6A
 (1527802885.855501)  can0  107   [8]  6B 66 6B 6C 67 67 6B 68
 (1527802885.936088)  can0  100   [8]  00 69 66 6C 74 75 76 74
 (1527802885.938956)  can0  101   [8]  73 62 63 67 78 78 75 72
 (1527802885.941898)  can0  102   [8]  73 65 67 79 7D 78 74 72
 (1527802885.944811)  can0  103   [8]  76 67 74 7C 7E 7D 6C 77
 (1527802885.947759)  can0  104   [8]  79 64 6D 7C 7C 77 67 76
 (1527802885.950683)  can0  105   [8]  73 69 73 7B 78 72 68 73
 (1527802885.953578)  can0  106   [8]  70 64 75 71 6D 73 71 6A
 (1527802885.956511)  can0  107   [8]  69 66 69 6C 6A 66 69 67
 (1527802886.037136)  can0  100   [8]  00 66 65 67 70 72 74 73
 (1527802886.039957)  can0  101   [8]  72 60 62 64 71 77 75 73
 (1527802886.042876)  can0  102   [8]  71 61 62 67 78 72 72 72
 (1527802886.045787)  can0  103   [8]  76 62 63 73 7B 73 67 73
 (1527802886.048730)  can0  104   [8]  75 64 6D 7C 7C 77 67 76
 (1527802886.051629)  can0  105   [8]  73 69 73 7B 78 74 69 72
 (1527802886.054569)  can0  106   [8]  72 64 70 7A 73 75 72 69
 (1527802886.057477)  can0  107   [8]  69 66 69 6E 6D 69 6A 66
 (1527802886.138135)  can0  100   [8]  00 64 67 69 6F 74 75 73
 (1527802886.140952)  can0  101   [8]  73 61 61 63 71 77 78 73
 (1527802886.143884)  can0  102   [8]  71 63 63 64 74 70 73 73
 (1527802886.146804)  can0  103   [8]  75 61 62 67 79 6F 67 73
 (1527802886.149730)  can0  104   [8]  77 63 64 72 7B 71 67 75
 (1527802886.152687)  can0  105   [8]  75 63 67 7A 7C 74 69 72
 (1527802886.155596)  can0  106   [8]  72 64 70 7A 73 75 72 69
 (1527802886.158492)  can0  107   [8]  69 66 64 6F 6D 68 6A 69
 (1527802886.239135)  can0  100   [8]  00 66 65 67 6D 74 75 72
 (1527802886.241981)  can0  101   [8]  72 5F 61 62 6E 79 77 74
 (1527802886.244877)  can0  102   [8]  71 61 63 63 6F 73 72 73
 (1527802886.247810)  can0  103   [8]  75 61 61 64 71 72 69 73
 (1527802886.250727)  can0  104   [8]  77 61 62 66 78 73 67 78
 (1527802886.253625)  can0  105   [8]  75 63 62 6B 7B 76 69 72
 (1527802886.256573)  can0  106   [8]  72 63 65 75 78 77 72 69
 (1527802886.259495)  can0  107   [8]  6C 62 64 6F 6D 68 6A 69
 (1527802886.340086)  can0  100   [8]  00 65 63 67 6D 74 73 72
 (1527802886.342979)  can0  101   [8]  74 5F 60 62 6B 77 76 73
 (1527802886.345893)  can0  102   [8]  70 62 62 61 6C 77 74 72
 (1527802886.348833)  can0  103   [8]  74 5F 61 62 6A 74 67 72
 (1527802886.351728)  can0  104   [8]  77 60 62 63 70 77 6A 78
 (1527802886.354651)  can0  105   [8]  74 61 62 65 79 79 6A 71
 (1527802886.357542)  can0  106   [8]  71 62 62 6E 78 76 71 68
 (1527802886.360469)  can0  107   [8]  6A 63 66 6A 6D 66 68 68
 (1527802886.441082)  can0  100   [8]  00 64 66 66 6C 74 73 71
 (1527802886.443954)  can0  101   [8]  72 60 61 62 68 78 76 73
 (1527802886.446901)  can0  102   [8]  71 61 61 63 69 75 73 72
 (1527802886.449784)  can0  103   [8]  76 61 62 61 68 79 6A 74
 (1527802886.452702)  can0  104   [8]  77 62 61 65 74 7A 6C 77
 (1527802886.455601)  can0  105   [8]  74 61 64 6A 7B 78 6A 73
 (1527802886.458545)  can0  106   [8]  70 63 63 75 75 75 72 68
 (1527802886.461452)  can0  107   [8]  6B 63 67 67 6A 67 69 66
 (1527802886.542095)  can0  100   [8]  00 66 65 67 68 73 72 73
 (1527802886.544950)  can0  101   [8]  72 60 60 60 65 77 75 72
 (1527802886.547876)  can0  102   [8]  6F 61 61 62 65 76 74 72
 (1527802886.550776)  can0  103   [8]  75 60 62 63 6F 7A 6C 75
 (1527802886.553755)  can0  104   [8]  77 63 6F 77 7D 7B 6B 76
 (1527802886.556651)  can0  105   [8]  73 65 70 79 78 73 68 72
 (1527802886.559566)  can0  106   [8]  71 63 68 6C 6B 70 70 67
 (1527802886.562450)  can0  107   [8]  6A 64 64 64 66 65 68 69
 (1527802886.643165)  can0  100   [8]  00 65 66 67 69 73 77 75
 (1527802886.645976)  can0  101   [8]  73 62 62 62 65 79 78 73
 (1527802886.648900)  can0  102   [8]  73 68 70 70 73 7B 75 75
 (1527802886.651816)  can0  103   [8]  76 71 76 7A 7C 7C 6D 74
 (1527802886.654750)  can0  104   [8]  78 71 72 7B 7B 77 69 76
 (1527802886.657665)  can0  105   [8]  76 6A 6E 6B 74 68 68 72
 (1527802886.660578)  can0  106   [8]  71 62 63 65 65 71 72 68
 (1527802886.663473)  can0  107   [8]  6A 65 65 64 68 67 69 68
 (1527802886.744052)  can0  100   [8]  00 6B 6D 74 70 76 77 74
 (1527802886.746977)  can0  101   [8]  74 66 69 77 76 7A 77 74
 (1527802886.749899)  can0  102   [8]  71 73 74 7C 7D 7B 75 74
 (1527802886.752834)  can0  103   [8]  76 73 72 7D 7C 7C 6C 74
 (1527802886.755748)  can0  104   [8]  78 71 70 6B 75 6E 68 78
 (1527802886.758648)  can0  105   [8]  76 64 64 6A 6B 66 67 71
 (1527802886.761589)  can0  106   [8]  72 64 62 62 63 6F 6F 69
 (1527802886.764497)  can0  107   [8]  69 65 63 63 67 63 68 69
 (1527802886.845154)  can0  100   [8]  00 71 72 77 79 77 76 74
 (1527802886.847976)  can0  101   [8]  74 6C 74 7B 7E 7D 78 75
 (1527802886.850915)  can0  102   [8]  72 71 74 7D 7D 7B 74 74
 (1527802886.853823)  can0  103   [8]  77 73 71 6A 75 75 6A 72
 (1527802886.856747)  can0  104   [8]  78 64 64 6E 73 66 65 76
 (1527802886.859681)  can0  105   [8]  76 61 63 66 66 65 67 71
 (1527802886.862584)  can0  106   [8]  71 63 62 62 65 6E 71 68
 (1527802886.865511)  can0  107   [8]  6A 65 63 62 66 67 68 67
 (1527802886.946141)  can0  100   [8]  00 72 75 78 79 79 75 74
 (1527802886.948977)  can0  101   [8]  74 75 77 7C 7D 7C 76 74
 (1527802886.951902)  can0  102   [8]  72 73 77 78 7C 79 73 74
 (1527802886.954853)  can0  103   [8]  76 63 65 66 77 6B 68 73
 (1527802886.957749)  can0  104   [8]  77 61 64 71 66 63 65 75
 (1527802886.960665)  can0  105   [8]  76 62 62 64 64 63 65 70
 (1527802886.963582)  can0  106   [8]  72 60 63 62 62 6F 6F 68
 (1527802886.966495)  can0  107   [8]  69 61 62 62 65 66 67 68
 (1527802887.047067)  can0  100   [8]  00 72 72 79 79 78 74 73
 (1527802887.049975)  can0  101   [8]  72 6B 73 7A 7C 7A 75 72
 (1527802887.052915)  can0  102   [8]  74 74 71 74 7D 75 72 73
 (1527802887.055825)  can0  103   [8]  75 62 63 6A 75 68 67 72
 (1527802887.058722)  can0  104   [8]  75 63 65 72 64 63 65 74
 (1527802887.061650)  can0  105   [8]  74 60 63 63 62 61 64 6F
 (1527802887.064559)  can0  106   [8]  73 61 62 62 62 6D 70 66
 (1527802887.067445)  can0  107   [8]  6A 62 61 61 64 65 67 65
 (1527802887.148106)  can0  100   [8]  00 71 73 7B 78 79 74 75
 (1527802887.151000)  can0  101   [8]  74 72 76 7C 7D 7B 76 75
 (1527802887.153920)  can0  102   [8]  71 73 78 7A 7E 76 74 72
 (1527802887.156845)  can0  103   [8]  76 66 68 6A 79 6C 68 73
 (1527802887.159751)  can0  104   [8]  77 62 63 72 6C 65 67 75
 (1527802887.162644)  can0  105   [8]  76 62 64 6A 65 63 67 71
 (1527802887.165604)  can0  106   [8]  73 63 63 63 65 6E 71 69
 (1527802887.168494)  can0  107   [8]  6A 65 65 62 65 67 6A 68
 (1527802887.249112)  can0  100   [8]  00 72 74 78 79 77 75 74
 (1527802887.251997)  can0  101   [8]  75 6F 77 7A 7E 7D 76 72
 (1527802887.254937)  can0  102   [8]  73 78 78 7E 7E 79 72 74
 (1527802887.257847)  can0  103   [8]  75 6A 71 7C 7C 77 67 74
 (1527802887.260771)  can0  104   [8]  77 76 72 6A 74 6C 67 76
 (1527802887.263727)  can0  105   [8]  76 65 65 69 72 65 67 73
 (1527802887.266593)  can0  106   [8]  72 63 64 65 66 6E 70 68
 (1527802887.269521)  can0  107   [8]  6B 64 66 64 69 67 6A 68
 (1527802887.350154)  can0  100   [8]  00 6C 70 72 6E 75 76 72
 (1527802887.352972)  can0  101   [8]  74 68 6F 6C 6C 7B 77 74
 (1527802887.355897)  can0  102   [8]  72 69 6E 7A 7C 7A 74 74
 (1527802887.358844)  can0  103   [8]  75 75 78 7C 7D 79 6B 73
 (1527802887.361750)  can0  104   [8]  76 70 77 7A 7D 79 69 74
 (1527802887.364644)  can0  105   [8]  76 6C 6C 74 6C 70 69 71
 (1527802887.367573)  can0  106   [8]  74 65 6E 66 67 72 71 6B
 (1527802887.370469)  can0  107   [8]  6B 64 64 64 69 67 68 68
 (1527802887.451089)  can0  100   [8]  00 68 65 68 6A 74 74 74
 (1527802887.453974)  can0  101   [8]  75 63 60 62 68 76 78 75
 (1527802887.456890)  can0  102   [8]  73 64 64 65 69 78 74 73
 (1527802887.459797)  can0  103   [8]  76 63 6D 73 78 7B 6B 74
 (1527802887.462751)  can0  104   [8]  78 65 6A 78 7D 7C 6E 76
 (1527802887.465676)  can0  105   [8]  77 68 75 78 7C 79 70 72
 (1527802887.468552)  can0  106   [8]  74 64 72 70 71 71 75 69
 (1527802887.471477)  can0  107   [8]  6C 68 67 6D 69 6A 6A 6A
 (1527802887.552130)  can0  100   [8]  00 64 65 68 6A 74 75 74
 (1527802887.554971)  can0  101   [8]  72 5F 61 63 69 77 76 74
 (1527802887.557893)  can0  102   [8]  73 63 60 62 69 77 73 73
 (1527802887.560832)  can0  103   [8]  75 5F 62 65 6D 79 6B 72
 (1527802887.563750)  can0  104   [8]  77 60 62 6A 7A 7B 6A 76
 (1527802887.566644)  can0  105   [8]  77 61 60 69 7A 79 6F 74
 (1527802887.569577)  can0  106   [8]  74 61 63 64 6F 77 72 69
 (1527802887.572499)  can0  107   [8]  69 61 64 64 67 67 6A 66
 (1527802887.653153)  can0  100   [8]  00 66 67 68 6D 73 75 75
 (1527802887.655969)  can0  101   [8]  75 60 62 62 71 76 76 74
 (1527802887.658897)  can0  102   [8]  72 61 63 64 70 72 73 73
 (1527802887.661798)  can0  103   [8]  75 61 61 63 6E 75 68 72
 (1527802887.664719)  can0  104   [8]  77 63 62 69 79 7B 68 77
 (1527802887.667641)  can0  105   [8]  77 61 61 65 71 7B 6B 71
 (1527802887.670585)  can0  106   [8]  75 62 63 63 65 73 72 6A
 (1527802887.673491)  can0  107   [8]  6B 65 65 64 67 66 6A 69
 (1527802887.754082)  can0  100   [8]  00 67 66 68 71 74 74 74
 (1527802887.756994)  can0  101   [8]  73 62 5F 64 73 76 77 74
 (1527802887.759893)  can0  102   [8]  73 63 60 65 72 6C 74 72
 (1527802887.762791)  can0  103   [8]  74 60 62 65 74 72 69 72
 (1527802887.765719)  can0  104   [8]  79 61 63 65 78 77 68 76
 (1527802887.768617)  can0  105   [8]  78 62 62 64 68 6D 67 71
 (1527802887.771564)  can0  106   [8]  75 60 62 63 63 70 6F 67
 (1527802887.774441)  can0  107   [8]  6A 62 64 63 66 67 69 69
 (1527802887.855151)  can0  100   [8]  00 65 66 69 71 71 75 73
 (1527802887.857969)  can0  101   [8]  74 60 60 63 75 76 75 72
 (1527802887.860893)  can0  102   [8]  72 62 63 65 73 6B 74 73
 (1527802887.863823)  can0  103   [8]  76 61 62 64 75 6F 69 72
 (1527802887.866715)  can0  104   [8]  76 61 60 64 74 70 66 73
 (1527802887.869655)  can0  105   [8]  76 60 62 62 67 65 69 71
 (1527802887.872552)  can0  106   [8]  75 63 60 60 62 6D 71 6A
 (1527802887.875464)  can0  107   [8]  6A 63 62 63 66 66 67 69
 (1527802887.956145)  can0  100   [8]  00 66 66 69 71 70 75 73
 (1527802887.958970)  can0  101   [8]  73 61 60 64 75 76 77 74
 (1527802887.961896)  can0  102   [8]  72 61 61 64 73 69 73 73
 (1527802887.964821)  can0  103   [8]  76 5F 62 65 76 6B 65 72
 (1527802887.967743)  can0  104   [8]  77 62 61 65 6E 69 64 73
 (1527802887.970641)  can0  105   [8]  77 61 61 62 62 65 68 70
 (1527802887.973585)  can0  106   [8]  74 62 60 61 64 6E 6F 67
 (1527802887.976469)  can0  107   [8]  6B 64 63 63 66 66 6B 67
 (1527802888.057171)  can0  100   [8]  00 66 66 68 6F 6F 74 73
 (1527802888.059965)  can0  101   [8]  73 60 61 62 72 74 76 71
 (1527802888.062895)  can0  102   [8]  70 63 61 63 71 65 70 71
 (1527802888.065790)  can0  103   [8]  76 60 5E 63 75 69 65 73
 (1527802888.068733)  can0  104   [8]  74 62 61 66 69 65 65 72
 (1527802888.071653)  can0  105   [8]  74 60 60 62 65 64 64 70
 (1527802888.074557)  can0  106   [8]  73 5F 63 61 63 6C 6F 69
 (1527802888.077440)  can0  107   [8]  69 62 61 62 65 68 67 67
 (1527802888.158172)  can0  100   [8]  00 63 64 68 6F 6F 74 73
 (1527802888.160967)  can0  101   [8]  73 60 61 62 72 74 76 71
 (1527802888.163888)  can0  102   [8]  72 63 60 64 74 66 6F 72
 (1527802888.166821)  can0  103   [8]  76 5F 61 65 75 66 66 72
 (1527802888.169717)  can0  104   [8]  74 61 61 63 67 62 65 76
 (1527802888.172656)  can0  105   [8]  76 60 62 63 64 64 67 70
 (1527802888.175572)  can0  106   [8]  73 62 61 60 63 6D 6E 68
 (1527802888.178489)  can0  107   [8]  6A 61 62 61 66 66 68 65
 (1527802888.259149)  can0  100   [8]  00 64 66 68 6F 6D 74 72
 (1527802888.261990)  can0  101   [8]  74 5F 61 61 70 71 76 71
 (1527802888.264895)  can0  102   [8]  72 63 60 64 74 66 6F 72
 (1527802888.267830)  can0  103   [8]  76 5F 61 65 73 65 66 74
 (1527802888.270737)  can0  104   [8]  75 60 62 65 62 62 66 76
 (1527802888.273640)  can0  105   [8]  77 61 60 63 62 62 66 71
 (1527802888.276574)  can0  106   [8]  70 60 61 62 63 6D 6F 67
 (1527802888.279472)  can0  107   [8]  6B 61 64 61 66 64 68 68
 (1527802888.360177)  can0  100   [8]  00 65 65 67 6D 6E 73 74
 (1527802888.362991)  can0  101   [8]  73 5E 60 63 70 6F 74 70
 (1527802888.365887)  can0  102   [8]  71 61 62 63 74 66 6F 72
 (1527802888.368829)  can0  103   [8]  75 5E 61 62 73 65 66 74
 (1527802888.371739)  can0  104   [8]  75 60 62 65 62 62 66 76
 (1527802888.374639)  can0  105   [8]  75 60 61 63 62 62 65 71
 (1527802888.377581)  can0  106   [8]  71 61 63 60 64 6E 6E 67
 (1527802888.380488)  can0  107   [8]  6A 63 60 62 65 65 6A 67
 (1527802888.461078)  can0  100   [8]  00 66 65 66 6C 6D 74 73
 (1527802888.464011)  can0  101   [8]  72 5F 63 62 6E 6E 76 73
 (1527802888.466915)  can0  102   [8]  71 62 61 63 74 66 6F 73
 (1527802888.469888)  can0  103   [8]  76 60 5F 63 6E 66 66 72
 (1527802888.472736)  can0  104   [8]  77 61 62 63 64 64 64 77
 (1527802888.475661)  can0  105   [8]  75 60 61 63 62 62 65 71
 (1527802888.478571)  can0  106   [8]  71 61 63 60 63 6C 6E 67
 (1527802888.481505)  can0  107   [8]  6A 61 61 62 66 65 68 69
 (1527802888.562137)  can0  100   [8]  00 66 64 69 6C 6D 74 73
 (1527802888.564987)  can0  101   [8]  74 61 5F 62 6D 6D 74 72
 (1527802888.567934)  can0  102   [8]  71 62 61 62 73 67 6D 72
 (1527802888.570832)  can0  103   [8]  74 5F 61 62 6C 69 67 74
 (1527802888.573741)  can0  104   [8]  75 5F 60 63 63 62 65 75
 (1527802888.576660)  can0  105   [8]  74 5F 5F 62 63 63 64 6E
 (1527802888.579595)  can0  106   [8]  70 60 63 60 63 6C 6E 67
 (1527802888.582464)  can0  107   [8]  6A 61 61 62 66 65 68 69
 (1527802888.663171)  can0  100   [8]  00 64 65 65 6A 6D 73 72
 (1527802888.665986)  can0  101   [8]  74 5E 5F 61 68 70 76 71
 (1527802888.668914)  can0  102   [8]  71 61 60 61 6B 6E 6F 72
 (1527802888.671817)  can0  103   [8]  72 60 60 61 66 6F 66 72
 (1527802888.674738)  can0  104   [8]  77 5F 60 63 63 64 64 76
 (1527802888.677659)  can0  105   [8]  74 60 5F 61 63 62 65 6F
 (1527802888.680587)  can0  106   [8]  6F 60 61 60 62 6B 6E 66
 (1527802888.683485)  can0  107   [8]  69 61 61 63 65 66 66 67
 (1527802888.764165)  can0  100   [8]  00 65 66 63 67 73 74 71
 (1527802888.767011)  can0  101   [8]  73 60 5F 61 67 76 75 72
 (1527802888.769920)  can0  102   [8]  72 62 61 62 64 78 75 71
 (1527802888.772835)  can0  103   [8]  75 60 5F 61 64 71 6F 73
 (1527802888.775736)  can0  104   [8]  76 61 61 64 63 62 66 75
 (1527802888.778635)  can0  105   [8]  74 62 60 63 62 64 65 70
 (1527802888.781587)  can0  106   [8]  6F 61 61 62 63 6C 71 69
 (1527802888.784473)  can0  107   [8]  6C 62 62 63 66 65 69 68
 (1527802888.865145)  can0  100   [8]  00 64 64 65 69 70 74 72
 (1527802888.867988)  can0  101   [8]  73 60 5F 61 63 73 76 71
 (1527802888.870882)  can0  102   [8]  72 61 60 62 63 6B 78 72
 (1527802888.873817)  can0  103   [8]  74 61 5F 62 61 66 74 77
 (1527802888.876750)  can0  104   [8]  77 5F 60 64 64 63 66 74
 (1527802888.879670)  can0  105   [8]  75 5F 60 60 62 64 67 71
 (1527802888.882567)  can0  106   [8]  70 63 63 61 61 6D 6F 66
 (1527802888.885514)  can0  107   [8]  6B 60 64 61 65 66 6A 66
 (1527802888.966166)  can0  100   [8]  00 66 67 65 68 6F 75 73
 (1527802888.969010)  can0  101   [8]  75 5F 5E 60 63 71 77 73
 (1527802888.971924)  can0  102   [8]  71 62 60 61 63 63 76 75
 (1527802888.974833)  can0  103   [8]  75 60 5F 60 62 62 6B 7A
 (1527802888.977734)  can0  104   [8]  79 60 60 63 63 63 65 76
 (1527802888.980647)  can0  105   [8]  75 62 60 62 62 63 64 70
 (1527802888.983584)  can0  106   [8]  72 63 61 61 60 6C 6D 67
 (1527802888.986457)  can0  107   [8]  6A 60 62 63 63 66 68 67
 (1527802889.067107)  can0  100   [8]  00 62 63 66 65 6C 73 71
 (1527802889.070013)  can0  101   [8]  73 5E 5D 60 63 6F 74 72
 (1527802889.072909)  can0  102   [8]  71 61 5F 61 62 64 72 77
 (1527802889.075834)  can0  103   [8]  75 5E 61 62 61 63 65 76
 (1527802889.078732)  can0  104   [8]  79 5F 61 62 62 63 64 74
 (1527802889.081691)  can0  105   [8]  78 60 61 61 61 61 66 6F
 (1527802889.084602)  can0  106   [8]  73 5F 60 61 62 6D 6F 67
 (1527802889.087481)  can0  107   [8]  6A 61 62 62 65 65 67 66
 (1527802889.168103)  can0  100   [8]  00 64 66 63 66 6C 74 74
 (1527802889.171032)  can0  101   [8]  71 5E 5E 5F 62 6F 75 72
 (1527802889.173906)  can0  102   [8]  71 5F 60 61 61 63 71 77
 (1527802889.176878)  can0  103   [8]  74 5F 5F 5F 60 63 65 71
 (1527802889.179776)  can0  104   [8]  78 60 60 62 61 61 65 75
 (1527802889.182654)  can0  105   [8]  75 60 5E 5F 64 62 66 6D
 (1527802889.185595)  can0  106   [8]  75 61 60 5F 61 6E 6F 67
 (1527802889.188484)  can0  107   [8]  6A 62 64 60 63 64 66 68
 (1527802889.269127)  can0  100   [8]  00 64 65 65 67 6C 74 73
 (1527802889.272010)  can0  101   [8]  72 5F 5F 60 63 6E 74 73
 (1527802889.274927)  can0  102   [8]  70 60 62 61 62 64 71 78
 (1527802889.277813)  can0  103   [8]  77 60 5F 60 62 63 65 75
 (1527802889.280732)  can0  104   [8]  79 60 60 62 62 61 63 72
 (1527802889.283633)  can0  105   [8]  77 61 60 62 62 61 63 6E
 (1527802889.286581)  can0  106   [8]  70 60 5F 61 62 6C 6F 68
 (1527802889.289459)  can0  107   [8]  6A 64 61 62 65 63 67 67
 (1527802889.370164)  can0  100   [8]  00 63 65 65 64 6B 73 74
 (1527802889.373007)  can0  101   [8]  70 5F 5F 60 63 6E 75 73
 (1527802889.375910)  can0  102   [8]  72 60 61 60 64 64 73 77
 (1527802889.378836)  can0  103   [8]  74 5F 5F 61 61 64 69 79
 (1527802889.381731)  can0  104   [8]  6F 60 61 63 63 62 65 77
 (1527802889.384680)  can0  105   [8]  70 5F 60 61 61 61 66 6C
 (1527802889.387601)  can0  106   [8]  75 62 62 61 63 6D 6F 66
 (1527802889.390499)  can0  107   [8]  69 61 62 62 66 63 67 68
 (1527802889.471123)  can0  100   [8]  00 63 65 65 67 6C 73 72
 (1527802889.474008)  can0  101   [8]  6F 5F 5D 60 63 6F 75 72
 (1527802889.476926)  can0  102   [8]  71 61 61 63 62 63 74 75
 (1527802889.479836)  can0  103   [8]  70 5F 5D 62 62 64 72 76
 (1527802889.482755)  can0  104   [8]  67 61 60 63 63 64 6B 73
 (1527802889.485697)  can0  105   [8]  6B 60 5F 61 62 62 65 69
 (1527802889.488598)  can0  106   [8]  76 61 61 60 62 6D 6D 65
 (1527802889.491478)  can0  107   [8]  68 63 63 60 63 65 68 65
 (1527802889.572167)  can0  100   [8]  00 66 63 64 66 70 73 70
 (1527802889.574982)  can0  101   [8]  71 60 61 61 64 74 75 6F
 (1527802889.577908)  can0  102   [8]  70 60 62 61 63 6D 72 67
 (1527802889.580836)  can0  103   [8]  72 5F 5F 60 63 71 6A 64
 (1527802889.583729)  can0  104   [8]  75 60 61 63 64 71 66 6A
 (1527802889.586628)  can0  105   [8]  76 61 61 62 63 65 67 6D
 (1527802889.589581)  can0  106   [8]  74 64 61 61 63 69 6C 66
 (1527802889.592475)  can0  107   [8]  6A 64 62 62 65 66 6A 67
 (1527802889.673121)  can0  100   [8]  00 65 63 65 6A 70 70 70
 (1527802889.675980)  can0  101   [8]  71 60 5F 61 6C 6F 70 70
 (1527802889.678923)  can0  102   [8]  72 5F 60 61 61 5E 65 6F
 (1527802889.681809)  can0  103   [8]  72 60 60 64 60 5D 64 71
 (1527802889.684704)  can0  104   [8]  75 60 60 68 61 62 64 75
 (1527802889.687631)  can0  105   [8]  74 61 60 61 64 62 64 6F
 (1527802889.690548)  can0  106   [8]  72 60 5F 61 62 6B 70 67
 (1527802889.693469)  can0  107   [8]  6A 61 63 61 65 63 67 65
 (1527802889.774111)  can0  100   [8]  00 64 63 65 67 6E 72 71
 (1527802889.777006)  can0  101   [8]  71 5E 5E 5F 64 71 74 70
 (1527802889.779905)  can0  102   [8]  72 60 5F 5E 66 66 71 72
 (1527802889.782843)  can0  103   [8]  74 60 5F 5F 6B 65 66 72
 (1527802889.785754)  can0  104   [8]  76 63 62 63 64 63 64 75
 (1527802889.788693)  can0  105   [8]  75 62 62 63 63 63 65 71
 (1527802889.791577)  can0  106   [8]  70 61 63 63 61 6D 70 67
 (1527802889.794477)  can0  107   [8]  6A 62 64 62 65 65 68 68
 (1527802889.875181)  can0  100   [8]  00 64 67 6A 71 6F 73 73
 (1527802889.878006)  can0  101   [8]  74 5E 5E 6E 71 73 74 72
 (1527802889.880946)  can0  102   [8]  71 60 63 74 67 66 70 72
 (1527802889.883855)  can0  103   [8]  76 62 66 6F 63 63 65 71
 (1527802889.886756)  can0  104   [8]  78 64 63 63 62 61 63 74
 (1527802889.889651)  can0  105   [8]  75 62 62 61 63 62 65 70
 (1527802889.892590)  can0  106   [8]  72 64 63 61 61 6D 6D 68
 (1527802889.895497)  can0  107   [8]  6B 62 65 62 64 65 69 67
 (1527802889.976180)  can0  100   [8]  00 66 6C 71 6F 70 73 72
 (1527802889.979004)  can0  101   [8]  72 62 69 72 70 73 74 70
 (1527802889.981921)  can0  102   [8]  70 66 76 6F 64 65 70 72
 (1527802889.984830)  can0  103   [8]  75 67 71 63 62 62 67 72
 (1527802889.987731)  can0  104   [8]  78 63 61 64 5F 62 63 75
 (1527802889.990679)  can0  105   [8]  74 64 60 62 62 62 67 70
 (1527802889.993575)  can0  106   [8]  72 63 61 61 62 6B 6F 67
 (1527802889.996484)  can0  107   [8]  6A 61 62 63 63 64 66 67
 (1527802890.077142)  can0  100   [8]  00 6B 70 73 6F 71 73 6F
 (1527802890.080026)  can0  101   [8]  72 67 6D 75 70 73 74 73
 (1527802890.082927)  can0  102   [8]  6F 71 76 69 63 67 72 71
 (1527802890.085854)  can0  103   [8]  74 72 6B 60 61 62 65 71
 (1527802890.088777)  can0  104   [8]  77 65 61 63 63 61 64 74
 (1527802890.091675)  can0  105   [8]  77 63 62 61 60 61 65 70
 (1527802890.094590)  can0  106   [8]  6F 62 61 62 60 6C 6E 68
 (1527802890.097500)  can0  107   [8]  6A 61 61 62 66 63 67 66
 (1527802890.178147)  can0  100   [8]  00 6A 70 71 6E 70 72 6F
 (1527802890.181003)  can0  101   [8]  71 66 6A 74 6F 73 74 71
 (1527802890.183924)  can0  102   [8]  70 71 77 6A 62 66 6E 70
 (1527802890.186828)  can0  103   [8]  74 72 6D 61 61 63 65 71
 (1527802890.189749)  can0  104   [8]  77 64 60 63 63 61 62 74
 (1527802890.192657)  can0  105   [8]  73 61 5F 60 62 5F 63 6E
 (1527802890.195590)  can0  106   [8]  71 60 60 5F 61 6C 6D 66
 (1527802890.198475)  can0  107   [8]  69 61 64 62 62 65 66 65
 (1527802890.279184)  can0  100   [8]  00 6B 6F 71 6F 70 71 72
 (1527802890.282003)  can0  101   [8]  72 64 69 74 72 75 73 72
 (1527802890.284930)  can0  102   [8]  70 73 77 6E 62 66 70 72
 (1527802890.287832)  can0  103   [8]  74 71 72 61 61 63 66 71
 (1527802890.290751)  can0  104   [8]  78 6D 65 64 64 63 64 75
 (1527802890.293648)  can0  105   [8]  72 63 5F 60 63 62 65 70
 (1527802890.296592)  can0  106   [8]  70 63 60 60 61 6D 6E 67
 (1527802890.299481)  can0  107   [8]  69 65 62 61 65 62 68 68
 (1527802890.380188)  can0  100   [8]  00 68 6C 70 71 71 73 71
 (1527802890.383003)  can0  101   [8]  71 63 68 74 73 74 73 72
 (1527802890.385922)  can0  102   [8]  72 6B 75 73 64 68 71 70
 (1527802890.388849)  can0  103   [8]  75 6B 77 66 60 62 66 71
 (1527802890.391749)  can0  104   [8]  78 6C 6F 64 61 60 63 74
 (1527802890.394647)  can0  105   [8]  74 64 62 63 62 62 63 71
 (1527802890.397575)  can0  106   [8]  70 62 61 60 61 6C 6F 69
 (1527802890.400485)  can0  107   [8]  6A 63 61 63 63 64 66 67
 (1527802890.481098)  can0  100   [8]  00 68 6C 70 71 71 73 71
 (1527802890.484003)  can0  101   [8]  71 63 65 73 74 75 72 72
 (1527802890.486958)  can0  102   [8]  71 64 72 76 66 66 71 72
 (1527802890.489824)  can0  103   [8]  76 63 70 70 61 63 65 71
 (1527802890.492751)  can0  104   [8]  77 63 71 6A 62 62 63 75
 (1527802890.495652)  can0  105   [8]  73 63 66 62 62 62 65 70
 (1527802890.498578)  can0  106   [8]  71 64 63 62 62 6B 6F 69
 (1527802890.501489)  can0  107   [8]  6A 63 64 63 66 64 68 68
 (1527802890.582191)  can0  100   [8]  00 66 69 71 70 6F 73 71
 (1527802890.585026)  can0  101   [8]  73 61 65 73 74 75 72 72
 (1527802890.587923)  can0  102   [8]  71 64 72 76 66 66 71 72
 (1527802890.590844)  can0  103   [8]  74 5E 60 73 66 62 65 72
 (1527802890.593746)  can0  104   [8]  78 5F 61 72 63 62 64 72
 (1527802890.596672)  can0  105   [8]  73 62 61 69 63 61 64 6F
 (1527802890.599582)  can0  106   [8]  71 64 63 62 63 6B 6F 65
 (1527802890.602495)  can0  107   [8]  69 62 66 64 66 66 68 67
 (1527802890.683176)  can0  100   [8]  00 65 66 71 72 71 71 72
 (1527802890.685999)  can0  101   [8]  70 5F 60 70 74 74 72 72
 (1527802890.688940)  can0  102   [8]  71 60 60 74 69 67 71 72
 (1527802890.691824)  can0  103   [8]  74 5E 60 73 66 62 65 72
 (1527802890.694748)  can0  104   [8]  78 5F 61 5F 67 61 62 72
 (1527802890.697662)  can0  105   [8]  75 65 5E 61 67 64 63 6F
 (1527802890.700585)  can0  106   [8]  71 63 61 62 60 6C 6E 66
 (1527802890.703498)  can0  107   [8]  6A 63 63 62 63 63 67 66
 (1527802890.784184)  can0  100   [8]  00 61 64 67 71 70 72 71
 (1527802890.787025)  can0  101   [8]  73 5C 5D 63 6F 73 73 70
 (1527802890.789946)  can0  102   [8]  6F 5F 5D 5E 63 67 70 71
 (1527802890.792901)  can0  103   [8]  73 5B 59 5D 62 61 65 71
 (1527802890.795773)  can0  104   [8]  76 61 5C 5F 67 61 62 72
 (1527802890.798696)  can0  105   [8]  75 65 5E 61 67 64 63 6F
 (1527802890.801637)  can0  106   [8]  70 63 67 60 60 6C 6F 67
 (1527802890.804522)  can0  107   [8]  6A 63 63 64 65 66 68 68
 (1527802890.885134)  can0  100   [8]  00 63 63 66 6C 70 71 71
 (1527802890.887996)  can0  101   [8]  72 5E 5F 60 6A 73 72 70
 (1527802890.890927)  can0  102   [8]  70 60 5D 5D 5E 63 70 70
 (1527802890.893846)  can0  103   [8]  74 5F 5C 5A 5B 61 65 70
 (1527802890.896763)  can0  104   [8]  76 5F 62 5E 5F 61 64 72
 (1527802890.899686)  can0  105   [8]  74 64 67 61 5F 68 67 6F
 (1527802890.902612)  can0  106   [8]  70 63 67 60 60 6C 6F 67
 (1527802890.905506)  can0  107   [8]  6A 63 63 64 66 64 67 67
 (1527802890.986182)  can0  100   [8]  00 64 63 67 6D 6F 72 71
 (1527802890.989023)  can0  101   [8]  70 60 5E 61 6B 70 71 6F
 (1527802890.991919)  can0  102   [8]  70 60 60 5D 5E 5E 66 70
 (1527802890.994854)  can0  103   [8]  74 5F 5E 5C 5C 5E 60 70
 (1527802890.997744)  can0  104   [8]  76 62 66 62 5C 5E 61 74
 (1527802891.000670)  can0  105   [8]  73 62 62 65 60 61 68 6F
 (1527802891.003578)  can0  106   [8]  71 61 64 69 61 62 6B 66
 (1527802891.006509)  can0  107   [8]  6A 66 62 64 66 64 67 67
 (1527802891.087150)  can0  100   [8]  00 64 65 65 6F 6E 70 72
 (1527802891.090020)  can0  101   [8]  71 5F 5F 60 6F 70 71 71
 (1527802891.092963)  can0  102   [8]  70 61 60 61 5F 5D 64 6F
 (1527802891.095886)  can0  103   [8]  74 5E 60 67 5D 5D 5E 6C
 (1527802891.098771)  can0  104   [8]  76 62 62 70 5F 5D 5E 72
 (1527802891.101695)  can0  105   [8]  73 61 62 6E 63 60 62 6F
 (1527802891.104605)  can0  106   [8]  71 60 61 6C 63 60 66 67
 (1527802891.107493)  can0  107   [8]  69 63 62 64 65 63 63 65
 (1527802891.188120)  can0  100   [8]  00 65 65 67 6F 6F 72 71
 (1527802891.191021)  can0  101   [8]  72 60 5F 61 71 71 72 6F
 (1527802891.193962)  can0  102   [8]  70 60 60 62 66 5F 62 6B
 (1527802891.196846)  can0  103   [8]  74 5E 60 66 64 5C 5F 65
 (1527802891.199770)  can0  104   [8]  73 61 61 6F 65 5D 5D 6B
 (1527802891.202693)  can0  105   [8]  73 60 61 6D 65 5E 61 6C
 (1527802891.205607)  can0  106   [8]  71 60 60 6B 68 60 61 64
 (1527802891.208518)  can0  107   [8]  67 62 64 66 67 64 67 67
 (1527802891.289137)  can0  100   [8]  00 63 63 66 6F 70 6E 71
 (1527802891.292021)  can0  101   [8]  71 5F 60 61 72 72 71 6F
 (1527802891.294953)  can0  102   [8]  71 5F 5F 63 66 60 64 6D
 (1527802891.297870)  can0  103   [8]  73 60 60 66 62 5C 5F 64
 (1527802891.300782)  can0  104   [8]  74 61 63 71 64 5D 5D 6A
 (1527802891.303688)  can0  105   [8]  72 62 61 6E 64 5D 5F 6E
 (1527802891.306596)  can0  106   [8]  70 5F 63 6C 65 61 63 64
 (1527802891.309515)  can0  107   [8]  69 64 65 62 65 62 64 65
 (1527802891.390157)  can0  100   [8]  00 64 66 67 6F 71 71 71
 (1527802891.393019)  can0  101   [8]  72 60 5E 62 6F 73 72 71
 (1527802891.395943)  can0  102   [8]  6F 60 61 61 65 60 65 6E
 (1527802891.398864)  can0  103   [8]  74 5F 60 66 60 5E 5E 66
 (1527802891.401768)  can0  104   [8]  74 5F 63 72 61 5E 5E 6A
 (1527802891.404668)  can0  105   [8]  74 60 63 70 61 5E 61 6D
 (1527802891.407613)  can0  106   [8]  70 63 62 6F 64 62 64 67
 (1527802891.410506)  can0  107   [8]  69 63 61 65 66 62 64 64
 (1527802891.491165)  can0  100   [8]  00 67 65 67 71 72 73 71
 (1527802891.494019)  can0  101   [8]  73 60 60 63 71 73 71 72
 (1527802891.496922)  can0  102   [8]  70 61 61 62 64 61 67 6D
 (1527802891.499848)  can0  103   [8]  74 60 61 66 5F 60 60 66
 (1527802891.502761)  can0  104   [8]  75 63 64 6F 60 5D 5E 6A
 (1527802891.505678)  can0  105   [8]  74 61 63 70 62 5E 60 6E
 (1527802891.508569)  can0  106   [8]  71 61 63 70 62 61 62 67
 (1527802891.511484)  can0  107   [8]  6A 65 65 68 68 64 64 66
 (1527802891.592146)  can0  100   [8]  00 65 67 65 6F 71 74 73
 (1527802891.595042)  can0  101   [8]  73 5F 5F 63 73 75 72 71
 (1527802891.597981)  can0  102   [8]  73 62 63 62 67 64 68 70
 (1527802891.600866)  can0  103   [8]  74 61 5F 63 5D 5E 60 67
 (1527802891.603791)  can0  104   [8]  76 62 63 6D 5F 5E 5F 69
 (1527802891.606713)  can0  105   [8]  76 61 64 6D 5D 5C 5F 6B
 (1527802891.609651)  can0  106   [8]  71 63 65 6E 5E 5E 61 66
 (1527802891.612583)  can0  107   [8]  6B 62 66 6C 63 5F 63 67
 (1527802891.693201)  can0  100   [8]  00 65 66 68 6F 71 74 72
 (1527802891.696016)  can0  101   [8]  74 5F 62 62 71 74 74 73
 (1527802891.698958)  can0  102   [8]  72 61 62 62 66 64 6B 71
 (1527802891.701841)  can0  103   [8]  76 61 61 5F 5D 61 60 6A
 (1527802891.704737)  can0  104   [8]  78 61 64 61 5D 5D 60 6A
 (1527802891.707669)  can0  105   [8]  73 61 6A 5F 5D 5D 61 6E
 (1527802891.710615)  can0  106   [8]  71 64 6B 60 5E 5E 63 64
 (1527802891.713529)  can0  107   [8]  67 66 6E 63 63 5F 67 66
 (1527802891.794200)  can0  100   [8]  00 64 66 66 6F 70 72 71
 (1527802891.797040)  can0  101   [8]  71 5F 5D 62 70 73 72 72
 (1527802891.799940)  can0  102   [8]  6F 62 60 60 60 62 68 6F
 (1527802891.802873)  can0  103   [8]  73 5E 5E 5E 5D 5E 62 6C
 (1527802891.805792)  can0  104   [8]  76 5F 5E 5D 5D 5D 5E 6F
 (1527802891.808714)  can0  105   [8]  75 63 5F 5D 5C 5B 61 6F
 (1527802891.811671)  can0  106   [8]  72 64 64 5C 5D 5D 66 66
 (1527802891.814567)  can0  107   [8]  6A 67 66 5F 61 60 64 64
 (1527802891.895113)  can0  100   [8]  00 63 65 67 6F 71 72 73
 (1527802891.898040)  can0  101   [8]  73 5F 5E 61 71 72 73 72
 (1527802891.900937)  can0  102   [8]  72 61 5E 5E 60 60 68 72
 (1527802891.903864)  can0  103   [8]  75 5D 5B 5D 5F 60 61 71
 (1527802891.906813)  can0  104   [8]  79 5E 5B 5F 5E 5F 5F 72
 (1527802891.909764)  can0  105   [8]  76 62 5C 5E 5C 5D 61 6F
 (1527802891.912638)  can0  106   [8]  72 62 5C 5C 5C 5E 69 66
 (1527802891.915584)  can0  107   [8]  6B 6B 5F 5F 60 60 6A 66
 (1527802891.996144)  can0  100   [8]  00 64 66 66 6E 71 73 71
 (1527802891.999041)  can0  101   [8]  72 60 5E 61 6D 73 73 73
 (1527802892.001977)  can0  102   [8]  6F 60 5D 5C 5F 60 69 70
 (1527802892.004866)  can0  103   [8]  76 5D 5B 5D 5E 62 61 6F
 (1527802892.007812)  can0  104   [8]  77 5F 5C 5D 5E 5F 5D 73
 (1527802892.010713)  can0  105   [8]  76 5D 5B 5E 5D 5D 61 70
 (1527802892.013672)  can0  106   [8]  72 5E 5E 5C 5A 5D 66 68
 (1527802892.016562)  can0  107   [8]  68 62 5D 5E 5F 5E 6C 66
 (1527802892.097199)  can0  100   [8]  00 65 64 65 6E 71 71 73
 (1527802892.100040)  can0  101   [8]  73 5F 5D 5F 6B 70 72 72
 (1527802892.102982)  can0  102   [8]  71 60 5E 5F 5F 5E 64 71
 (1527802892.105882)  can0  103   [8]  75 5C 5C 5E 5E 61 62 6C
 (1527802892.108816)  can0  104   [8]  75 5F 5C 5E 5D 5E 5E 6B
 (1527802892.111759)  can0  105   [8]  76 5C 5A 5D 5C 5C 5F 6C
 (1527802892.114658)  can0  106   [8]  72 5B 5B 5D 5A 5D 5D 66
 (1527802892.117586)  can0  107   [8]  68 62 5E 5D 5F 5F 64 64
 (1527802892.198145)  can0  100   [8]  00 66 65 65 6E 6F 72 71
 (1527802892.201039)  can0  101   [8]  72 5E 5F 5F 65 6A 6E 6F
 (1527802892.203967)  can0  102   [8]  70 5F 5C 5E 5F 5E 62 66
 (1527802892.206893)  can0  103   [8]  71 5B 5C 5C 5B 5E 60 63
 (1527802892.209811)  can0  104   [8]  71 5C 5C 5D 5D 5C 5F 60
 (1527802892.212743)  can0  105   [8]  6F 5C 5B 5B 5D 5A 5D 60
 (1527802892.215679)  can0  106   [8]  6F 5D 5B 5A 5B 5D 5C 60
 (1527802892.218604)  can0  107   [8]  67 63 5E 5A 5D 5D 5F 63
 (1527802892.299196)  can0  100   [8]  00 65 63 64 69 6D 6F 6F
 (1527802892.302037)  can0  101   [8]  71 5E 5D 5D 61 65 69 6E
 (1527802892.304959)  can0  102   [8]  6D 5D 5B 5C 5E 5D 60 62
 (1527802892.307887)  can0  103   [8]  6B 5B 59 5B 5B 5F 5F 62
 (1527802892.310811)  can0  104   [8]  68 5C 5B 5C 5C 5C 5E 5F
 (1527802892.313760)  can0  105   [8]  62 5A 5B 5A 5B 5A 5E 5F
 (1527802892.316670)  can0  106   [8]  67 5C 5B 5A 5B 5B 5D 5C
 (1527802892.319584)  can0  107   [8]  66 60 5D 5C 5D 5C 5E 60
 (1527802892.400196)  can0  100   [8]  00 65 63 65 69 6C 70 6F
 (1527802892.403037)  can0  101   [8]  6F 5E 5C 5E 61 64 68 6D
 (1527802892.405980)  can0  102   [8]  6D 5D 5B 5E 5F 5C 61 62
 (1527802892.408886)  can0  103   [8]  69 5D 5C 5D 5C 5F 61 61
 (1527802892.411811)  can0  104   [8]  65 5D 5C 5B 5C 5C 5F 5F
 (1527802892.414748)  can0  105   [8]  5F 5B 5A 5B 5C 5B 5E 60
 (1527802892.417680)  can0  106   [8]  64 5D 5B 5B 5C 5C 5E 5F
 (1527802892.420594)  can0  107   [8]  64 5F 5C 5A 5C 5C 5D 64
 (1527802892.501140)  can0  100   [8]  00 63 62 65 6B 6D 70 6F
 (1527802892.504035)  can0  101   [8]  73 5E 5D 5E 61 66 6B 6D
 (1527802892.506978)  can0  102   [8]  6E 5D 5E 5E 5F 5D 60 63
 (1527802892.509885)  can0  103   [8]  69 5C 5C 5B 5B 60 5F 61
 (1527802892.512809)  can0  104   [8]  65 5C 5C 5B 5E 5D 5E 5D
 (1527802892.515740)  can0  105   [8]  61 5C 5A 5C 5D 5C 5F 60
 (1527802892.518663)  can0  106   [8]  65 5B 5D 5A 5C 5C 5D 5C
 (1527802892.521591)  can0  107   [8]  65 60 5E 5B 60 5C 60 62
 (1527802892.602143)  can0  100   [8]  00 62 63 64 6C 6D 71 70
 (1527802892.605037)  can0  101   [8]  71 5F 5E 61 61 65 6B 6C
 (1527802892.607977)  can0  102   [8]  6F 5E 5C 5D 5F 5E 60 64
 (1527802892.610889)  can0  103   [8]  6B 5B 5D 5E 5D 5E 60 60
 (1527802892.613808)  can0  104   [8]  65 5D 5B 5C 5E 5C 5D 60
 (1527802892.616725)  can0  105   [8]  61 5A 5A 5B 5D 5D 5E 60
 (1527802892.619647)  can0  106   [8]  66 5C 5B 5C 5B 5D 5D 5E
 (1527802892.622579)  can0  107   [8]  68 60 5D 5D 5E 5D 60 63
 (1527802892.703182)  can0  100   [8]  00 65 64 65 6C 6F 6F 70
 (1527802892.706033)  can0  101   [8]  72 60 5C 5E 61 67 69 6B
 (1527802892.709004)  can0  102   [8]  6D 5E 5C 5F 5F 5D 5F 62
 (1527802892.711931)  can0  103   [8]  6B 5D 5A 5E 5A 60 5F 62
 (1527802892.714812)  can0  104   [8]  66 5C 5B 5C 5C 5C 5F 61
 (1527802892.717735)  can0  105   [8]  64 5B 5B 5C 5C 5B 5E 5D
 (1527802892.720670)  can0  106   [8]  6A 5C 5B 5C 5B 5C 5D 60
 (1527802892.723581)  can0  107   [8]  68 62 5D 5E 5F 5C 5D 65
 (1527802892.804217)  can0  100   [8]  00 65 64 65 6C 6D 6E 6F
 (1527802892.807033)  can0  101   [8]  70 5E 5D 5F 61 65 69 6C
 (1527802892.809977)  can0  102   [8]  6E 5E 5C 5D 5D 5E 60 61
 (1527802892.812884)  can0  103   [8]  6B 5A 5C 5D 5D 5C 61 62
 (1527802892.815805)  can0  104   [8]  6D 5A 5B 5C 5C 5C 5F 5E
 (1527802892.818730)  can0  105   [8]  6A 5B 5B 5D 5D 5C 5E 5F
 (1527802892.821673)  can0  106   [8]  6E 60 5C 5A 59 5C 5E 61
 (1527802892.824607)  can0  107   [8]  68 6B 5F 5E 5F 5B 61 64
 (1527802892.905217)  can0  100   [8]  00 65 62 65 69 6D 6E 6F
 (1527802892.908033)  can0  101   [8]  70 5E 5D 5F 61 65 69 6C
 (1527802892.911003)  can0  102   [8]  6E 5F 5D 5C 5F 61 61 64
 (1527802892.913912)  can0  103   [8]  70 5F 5C 5D 5C 5F 5F 62
 (1527802892.916832)  can0  104   [8]  6B 5F 5E 5D 5C 5B 5F 61
 (1527802892.919747)  can0  105   [8]  69 62 68 5D 5D 5D 5D 60
 (1527802892.922667)  can0  106   [8]  6F 65 6A 60 5C 5E 5D 62
 (1527802892.925595)  can0  107   [8]  66 66 68 69 63 5E 61 63
 (1527802893.006148)  can0  100   [8]  00 66 64 65 6C 70 71 70
 (1527802893.009034)  can0  101   [8]  71 60 5F 60 68 6D 6E 6F
 (1527802893.011972)  can0  102   [8]  6E 5F 5D 5C 5F 61 61 64
 (1527802893.014899)  can0  103   [8]  70 5F 5C 5D 5C 5F 61 62
 (1527802893.017793)  can0  104   [8]  6C 61 64 72 6A 5D 5E 60
 (1527802893.020714)  can0  105   [8]  69 63 63 6E 71 5F 60 62
 (1527802893.023618)  can0  106   [8]  6C 61 64 65 75 63 61 63
 (1527802893.026543)  can0  107   [8]  69 65 64 64 6C 66 66 65
 (1527802893.107222)  can0  100   [8]  00 65 64 67 6F 72 72 71
 (1527802893.110034)  can0  101   [8]  73 60 61 62 70 74 72 71
 (1527802893.112928)  can0  102   [8]  71 63 62 62 63 61 63 6A
 (1527802893.115874)  can0  103   [8]  73 61 60 66 62 5E 61 62
 (1527802893.118756)  can0  104   [8]  6C 61 64 72 6A 5D 5E 60
 (1527802893.121679)  can0  105   [8]  69 63 61 63 66 79 6F 67
 (1527802893.124592)  can0  106   [8]  66 62 61 62 64 74 6F 66
 (1527802893.127510)  can0  107   [8]  68 63 62 63 65 67 67 68
 (1527802893.208132)  can0  100   [8]  00 66 67 66 6D 76 74 72
 (1527802893.211033)  can0  101   [8]  72 60 61 64 6F 79 75 71
 (1527802893.213955)  can0  102   [8]  72 62 63 62 6A 76 6B 6A
 (1527802893.216902)  can0  103   [8]  71 62 62 63 6C 7B 67 62
 (1527802893.219783)  can0  104   [8]  66 63 62 64 6E 7A 69 61
 (1527802893.222703)  can0  105   [8]  63 62 61 63 66 79 6F 67
 (1527802893.225619)  can0  106   [8]  66 62 61 62 64 74 71 6A
 (1527802893.228529)  can0  107   [8]  6B 63 64 64 67 65 6A 69
 (1527802893.309181)  can0  100   [8]  00 65 65 67 6A 74 74 72
 (1527802893.312032)  can0  101   [8]  73 61 60 62 6B 77 75 72
 (1527802893.314954)  can0  102   [8]  71 61 61 64 65 72 77 71
 (1527802893.317858)  can0  103   [8]  70 60 60 61 62 6E 7A 6D
 (1527802893.320781)  can0  104   [8]  67 61 62 62 63 6C 7A 75
 (1527802893.323680)  can0  105   [8]  66 61 5F 64 64 66 72 77
 (1527802893.326626)  can0  106   [8]  6A 61 60 61 63 6F 71 6A
 (1527802893.329550)  can0  107   [8]  6B 63 64 64 67 65 6A 69
 (1527802893.410182)  can0  100   [8]  00 64 63 65 69 72 74 71
 (1527802893.413031)  can0  101   [8]  72 5F 60 61 67 75 74 72
 (1527802893.415952)  can0  102   [8]  72 61 60 61 62 69 76 73
 (1527802893.418889)  can0  103   [8]  73 5F 62 60 63 65 70 78
 (1527802893.421792)  can0  104   [8]  6D 61 62 63 64 63 6B 7B
 (1527802893.424682)  can0  105   [8]  76 61 60 62 63 62 68 75
 (1527802893.427617)  can0  106   [8]  75 60 60 61 62 6D 6E 68
 (1527802893.430502)  can0  107   [8]  6D 65 62 62 64 66 68 68
 (1527802893.511211)  can0  100   [8]  00 66 66 66 69 72 74 74
 (1527802893.514056)  can0  101   [8]  75 61 61 62 66 75 77 75
 (1527802893.516971)  can0  102   [8]  73 63 61 63 64 67 75 73
 (1527802893.519883)  can0  103   [8]  76 60 61 63 62 64 68 7A
 (1527802893.522781)  can0  104   [8]  79 61 63 64 63 63 66 78
 (1527802893.525701)  can0  105   [8]  7B 62 5F 64 63 63 66 70
 (1527802893.528623)  can0  106   [8]  77 61 61 62 65 6E 71 67
 (1527802893.531525)  can0  107   [8]  6C 61 64 62 67 65 6A 67
 (1527802893.612126)  can0  100   [8]  00 65 66 66 66 71 74 72
 (1527802893.615030)  can0  101   [8]  73 61 61 62 66 75 76 73
 (1527802893.617958)  can0  102   [8]  72 63 60 63 64 65 74 79
 (1527802893.620872)  can0  103   [8]  78 60 61 63 63 65 68 74
 (1527802893.623778)  can0  104   [8]  7C 62 60 64 63 64 66 77
 (1527802893.626706)  can0  105   [8]  7C 63 61 64 64 64 66 71
 (1527802893.629606)  can0  106   [8]  74 62 63 62 64 6D 70 68
 (1527802893.632535)  can0  107   [8]  6C 65 61 61 66 66 69 68
 (1527802893.713176)  can0  100   [8]  00 67 64 66 68 6F 75 75
 (1527802893.716028)  can0  101   [8]  74 61 60 61 64 72 76 75
 (1527802893.718967)  can0  102   [8]  74 62 61 64 65 66 74 77
 (1527802893.721878)  can0  103   [8]  77 5F 60 62 62 63 67 72
 (1527802893.724816)  can0  104   [8]  7B 61 62 64 65 63 67 75
 (1527802893.727736)  can0  105   [8]  7B 61 61 62 63 65 65 71
 (1527802893.730640)  can0  106   [8]  73 60 62 63 63 6E 6F 69
 (1527802893.733528)  can0  107   [8]  6C 62 64 62 68 66 69 68
 (1527802893.814215)  can0  100   [8]  00 66 66 67 67 70 75 75
 (1527802893.817070)  can0  101   [8]  73 5F 60 60 63 72 77 76
 (1527802893.819953)  can0  102   [8]  72 61 61 62 64 65 72 79
 (1527802893.822878)  can0  103   [8]  75 61 61 61 63 66 66 74
 (1527802893.825776)  can0  104   [8]  78 62 63 65 64 65 65 76
 (1527802893.828700)  can0  105   [8]  7A 60 60 62 61 64 66 72
 (1527802893.831653)  can0  106   [8]  74 63 61 60 62 6F 71 69
 (1527802893.834501)  can0  107   [8]  6B 64 62 62 65 67 69 69
 (1527802893.915210)  can0  100   [8]  00 64 66 66 67 6D 75 74
 (1527802893.918076)  can0  101   [8]  73 5F 61 62 64 71 75 73
 (1527802893.920951)  can0  102   [8]  73 62 61 61 63 65 74 75
 (1527802893.923884)  can0  103   [8]  77 5E 5F 61 61 64 69 79
 (1527802893.926812)  can0  104   [8]  78 61 61 62 64 63 6A 79
 (1527802893.929701)  can0  105   [8]  78 5F 61 62 64 64 6A 78
 (1527802893.932641)  can0  106   [8]  73 61 61 61 63 6E 71 6A
 (1527802893.935523)  can0  107   [8]  6C 62 64 62 66 66 69 68
 (1527802894.016206)  can0  100   [8]  00 66 67 67 68 72 76 72
 (1527802894.019052)  can0  101   [8]  72 61 60 62 66 76 77 75
 (1527802894.021952)  can0  102   [8]  72 63 61 64 64 6C 77 74
 (1527802894.024876)  can0  103   [8]  75 60 61 63 62 67 76 74
 (1527802894.027773)  can0  104   [8]  7A 62 63 64 64 69 7A 79
 (1527802894.030711)  can0  105   [8]  79 61 63 63 65 6C 7A 77
 (1527802894.033625)  can0  106   [8]  75 60 62 62 65 72 77 6A
 (1527802894.036567)  can0  107   [8]  6E 65 64 65 69 69 6B 69
 (1527802894.117253)  can0  100   [8]  00 66 67 66 6B 75 74 72
 (1527802894.120048)  can0  101   [8]  73 60 60 62 6A 78 76 75
 (1527802894.122949)  can0  102   [8]  73 60 62 64 68 75 75 73
 (1527802894.125876)  can0  103   [8]  76 60 62 63 65 74 6D 75
 (1527802894.128798)  can0  104   [8]  79 62 63 65 67 77 6E 77
 (1527802894.131733)  can0  105   [8]  78 62 64 64 6C 7B 6F 75
 (1527802894.134638)  can0  106   [8]  73 65 63 63 69 77 74 6C
 (1527802894.137590)  can0  107   [8]  6C 63 65 65 68 68 6A 6A
 (1527802894.218219)  can0  100   [8]  00 66 66 67 6D 75 75 74
 (1527802894.221051)  can0  101   [8]  73 63 61 64 6E 79 76 75
 (1527802894.223993)  can0  102   [8]  73 62 63 64 6F 75 74 73
 (1527802894.226895)  can0  103   [8]  78 62 61 63 6B 73 69 74
 (1527802894.229853)  can0  104   [8]  78 63 63 65 70 76 6A 78
 (1527802894.232733)  can0  105   [8]  77 63 63 65 79 78 6A 72
 (1527802894.235646)  can0  106   [8]  73 64 63 69 76 76 72 6B
 (1527802894.238594)  can0  107   [8]  6B 64 68 68 6F 68 6C 68
 (1527802894.319212)  can0  100   [8]  00 67 67 68 71 74 74 73
 (1527802894.322045)  can0  101   [8]  74 62 61 64 73 79 75 74
 (1527802894.324958)  can0  102   [8]  73 62 64 64 75 70 75 73
 (1527802894.327871)  can0  103   [8]  76 61 62 65 74 6C 67 74
 (1527802894.330812)  can0  104   [8]  7A 63 63 6B 7A 6B 68 76
 (1527802894.333738)  can0  105   [8]  77 63 67 79 7A 6A 68 72
 (1527802894.336642)  can0  106   [8]  73 68 74 78 71 72 72 69
 (1527802894.339565)  can0  107   [8]  6C 67 6D 6C 69 68 68 6A
 (1527802894.420227)  can0  100   [8]  00 65 68 67 71 73 74 75
 (1527802894.423050)  can0  101   [8]  72 61 62 65 74 77 75 73
 (1527802894.425973)  can0  102   [8]  72 63 61 68 74 69 71 72
 (1527802894.428897)  can0  103   [8]  75 62 64 6E 72 67 68 72
 (1527802894.431794)  can0  104   [8]  78 66 72 7A 6D 67 67 75
 (1527802894.434720)  can0  105   [8]  76 79 7A 79 69 64 67 71
 (1527802894.437670)  can0  106   [8]  73 75 6C 6E 64 6E 6F 69
 (1527802894.440573)  can0  107   [8]  6A 68 67 65 67 67 6A 69
 (1527802894.521255)  can0  100   [8]  00 69 68 6D 75 73 75 74
 (1527802894.524047)  can0  101   [8]  74 63 63 6A 78 76 78 74
 (1527802894.526973)  can0  102   [8]  73 67 69 75 6F 68 72 73
 (1527802894.529908)  can0  103   [8]  78 71 7A 77 66 66 68 73
 (1527802894.532824)  can0  104   [8]  79 7D 7B 71 66 66 66 75
 (1527802894.535769)  can0  105   [8]  77 6E 6F 67 66 66 69 74
 (1527802894.538668)  can0  106   [8]  75 67 65 65 65 71 71 68
 (1527802894.541613)  can0  107   [8]  6B 65 65 65 67 67 6A 6A
 (1527802894.622171)  can0  100   [8]  00 6B 6E 73 71 72 74 73
 (1527802894.625073)  can0  101   [8]  74 67 69 75 75 73 77 75
 (1527802894.627993)  can0  102   [8]  73 7D 7A 72 66 67 73 73
 (1527802894.630899)  can0  103   [8]  76 7C 75 66 64 64 68 72
 (1527802894.633816)  can0  104   [8]  79 73 65 65 64 65 65 76
 (1527802894.636758)  can0  105   [8]  79 65 63 64 66 66 67 72
 (1527802894.639650)  can0  106   [8]  74 64 64 64 64 6F 71 68
 (1527802894.642568)  can0  107   [8]  6D 64 65 62 69 66 6B 66
 (1527802894.723256)  can0  100   [8]  00 76 75 76 6D 72 75 74
 (1527802894.726072)  can0  101   [8]  75 79 78 76 6D 74 76 74
 (1527802894.728995)  can0  102   [8]  74 7A 6D 68 65 68 73 73
 (1527802894.731963)  can0  103   [8]  77 6D 63 62 65 67 67 73
 (1527802894.734820)  can0  104   [8]  77 61 65 64 63 65 65 75
 (1527802894.737747)  can0  105   [8]  77 62 61 63 63 65 67 73
 (1527802894.740684)  can0  106   [8]  75 62 63 60 64 6E 71 68
 (1527802894.743569)  can0  107   [8]  6B 66 63 63 65 67 69 69
 (1527802894.824209)  can0  100   [8]  00 77 73 6E 6E 70 75 72
 (1527802894.827072)  can0  101   [8]  74 78 73 6E 6B 74 75 75
 (1527802894.829996)  can0  102   [8]  73 71 62 65 65 67 72 73
 (1527802894.832933)  can0  103   [8]  77 63 63 62 64 66 68 74
 (1527802894.835819)  can0  104   [8]  78 63 62 65 64 64 65 76
 (1527802894.838717)  can0  105   [8]  79 62 62 63 66 65 66 72
 (1527802894.841659)  can0  106   [8]  73 63 62 63 65 6F 6F 69
 (1527802894.844568)  can0  107   [8]  6B 63 62 63 68 66 6A 67
 (1527802894.925212)  can0  100   [8]  00 72 6D 6D 6A 6E 72 73
 (1527802894.928073)  can0  101   [8]  75 76 72 69 6A 73 75 74
 (1527802894.930967)  can0  102   [8]  73 6C 63 63 63 66 72 72
 (1527802894.933916)  can0  103   [8]  75 60 63 62 63 65 66 71
 (1527802894.936825)  can0  104   [8]  75 62 62 64 62 64 64 75
 (1527802894.939719)  can0  105   [8]  77 62 63 62 64 64 68 72
 (1527802894.942667)  can0  106   [8]  73 5F 61 62 62 6D 6F 69
 (1527802894.945543)  can0  107   [8]  6C 62 62 61 65 67 68 68
 (1527802895.026248)  can0  100   [8]  00 76 74 6E 6C 6E 75 73
 (1527802895.029068)  can0  101   [8]  73 78 74 6F 6C 71 75 74
 (1527802895.031997)  can0  102   [8]  74 77 67 65 66 66 72 73
 (1527802895.034917)  can0  103   [8]  76 65 63 64 64 67 67 73
 (1527802895.037832)  can0  104   [8]  79 63 64 65 64 67 66 75
 (1527802895.040779)  can0  105   [8]  78 63 63 64 64 65 67 72
 (1527802895.043679)  can0  106   [8]  75 64 63 63 64 6F 70 67
 (1527802895.046607)  can0  107   [8]  6D 65 67 63 66 67 6A 6A
 (1527802895.127252)  can0  100   [8]  00 77 78 76 6C 71 75 74
 (1527802895.130067)  can0  101   [8]  75 7B 7B 78 70 72 76 75
 (1527802895.133013)  can0  102   [8]  73 7E 7A 6C 66 67 74 76
 (1527802895.135938)  can0  103   [8]  76 78 76 66 65 66 67 73
 (1527802895.138844)  can0  104   [8]  77 75 6C 66 66 64 65 75
 (1527802895.141752)  can0  105   [8]  78 68 66 64 64 64 66 72
 (1527802895.144679)  can0  106   [8]  75 64 65 65 65 6F 70 6A
 (1527802895.147567)  can0  107   [8]  6C 64 64 63 69 68 6A 69
 (1527802895.228204)  can0  100   [8]  00 77 78 76 6C 71 75 74
 (1527802895.231066)  can0  101   [8]  75 7B 7B 78 79 74 78 76
 (1527802895.234013)  can0  102   [8]  74 7E 7E 7C 73 69 72 73
 (1527802895.236962)  can0  103   [8]  77 7E 7D 7C 6F 67 69 74
 (1527802895.239870)  can0  104   [8]  79 7C 7B 7C 6F 66 67 77
 (1527802895.242785)  can0  105   [8]  79 74 6C 74 68 65 68 72
 (1527802895.245707)  can0  106   [8]  75 67 6A 66 66 6F 73 69
 (1527802895.248614)  can0  107   [8]  6E 65 67 66 68 67 6B 69
 (1527802895.329206)  can0  100   [8]  00 77 71 74 75 70 76 74
 (1527802895.332067)  can0  101   [8]  75 6C 6C 73 79 74 78 76
 (1527802895.334994)  can0  102   [8]  74 7E 7E 7C 73 69 72 73
 (1527802895.337921)  can0  103   [8]  76 73 79 7F 7F 78 69 72
 (1527802895.340870)  can0  104   [8]  79 73 7B 7F 7E 79 6A 77
 (1527802895.343782)  can0  105   [8]  78 75 77 7A 76 6F 6A 73
 (1527802895.346693)  can0  106   [8]  78 6A 73 6A 71 72 74 6B
 (1527802895.349626)  can0  107   [8]  6C 67 68 67 6B 6A 6C 69
 (1527802895.430246)  can0  100   [8]  00 6A 69 6A 72 75 75 74
 (1527802895.433065)  can0  101   [8]  76 64 64 65 72 78 76 76
 (1527802895.436011)  can0  102   [8]  75 66 68 70 79 73 73 74
 (1527802895.438930)  can0  103   [8]  76 73 79 7F 7F 78 69 72
 (1527802895.441838)  can0  104   [8]  79 73 7B 7F 7E 7F 7E 78
 (1527802895.444764)  can0  105   [8]  7A 66 6F 7C 7C 76 75 74
 (1527802895.447707)  can0  106   [8]  78 64 66 70 6D 75 73 6B
 (1527802895.450636)  can0  107   [8]  6E 63 67 68 69 6A 6C 6B
 (1527802895.531201)  can0  100   [8]  00 67 68 69 6B 76 76 74
 (1527802895.534064)  can0  101   [8]  74 63 63 65 69 79 79 74
 (1527802895.537005)  can0  102   [8]  73 64 63 65 6A 77 7C 76
 (1527802895.539917)  can0  103   [8]  78 62 67 72 7C 7D 7B 75
 (1527802895.542866)  can0  104   [8]  79 66 69 7B 7F 7F 7E 78
 (1527802895.545778)  can0  105   [8]  7A 66 6F 7C 7C 76 75 74
 (1527802895.548703)  can0  106   [8]  78 64 63 67 6D 74 75 6B
 (1527802895.551613)  can0  107   [8]  6D 64 66 65 6A 6A 6D 6B
 (1527802895.632242)  can0  100   [8]  00 6A 65 69 69 72 77 77
 (1527802895.635064)  can0  101   [8]  75 61 63 66 67 73 7B 78
 (1527802895.638006)  can0  102   [8]  76 64 64 65 6A 6D 7C 79
 (1527802895.640940)  can0  103   [8]  79 61 62 67 74 7E 7F 7D
 (1527802895.643836)  can0  104   [8]  7B 64 65 6E 79 7E 7D 80
 (1527802895.646783)  can0  105   [8]  7C 63 64 6F 79 7A 78 75
 (1527802895.649704)  can0  106   [8]  77 64 63 67 6D 74 75 6B
 (1527802895.652632)  can0  107   [8]  6D 64 66 65 6A 69 6C 69
 (1527802895.733243)  can0  100   [8]  00 66 64 67 67 6F 76 78
 (1527802895.736089)  can0  101   [8]  75 5F 62 62 65 70 79 78
 (1527802895.738992)  can0  102   [8]  75 63 63 65 66 68 7A 7E
 (1527802895.741916)  can0  103   [8]  78 63 62 64 67 77 7E 80
 (1527802895.744841)  can0  104   [8]  7D 61 63 65 6D 7B 7E 7E
 (1527802895.747764)  can0  105   [8]  7C 62 62 65 72 77 76 77
 (1527802895.750682)  can0  106   [8]  77 62 62 64 66 74 75 6C
 (1527802895.753599)  can0  107   [8]  6E 65 65 65 67 69 6C 69
 (1527802895.834246)  can0  100   [8]  00 66 66 68 68 6C 75 78
 (1527802895.837062)  can0  101   [8]  76 61 61 63 66 70 78 79
 (1527802895.840006)  can0  102   [8]  75 65 63 64 67 68 79 7E
 (1527802895.842917)  can0  103   [8]  7A 62 63 65 67 75 7E 7F
 (1527802895.845834)  can0  104   [8]  7C 63 64 66 6B 79 7E 80
 (1527802895.848749)  can0  105   [8]  7D 64 62 64 70 77 76 79
 (1527802895.851680)  can0  106   [8]  79 63 64 67 65 76 76 6B
 (1527802895.854600)  can0  107   [8]  6F 63 63 63 69 6A 6B 6A
 (1527802895.935169)  can0  100   [8]  00 66 67 68 68 6E 77 79
 (1527802895.938090)  can0  101   [8]  76 62 62 64 66 6F 79 79
 (1527802895.941009)  can0  102   [8]  74 63 62 65 67 6B 7B 7F
 (1527802895.943939)  can0  103   [8]  79 62 64 63 6C 7A 7D 7F
 (1527802895.946859)  can0  104   [8]  7D 62 64 67 76 7D 7D 80
 (1527802895.949762)  can0  105   [8]  7D 63 64 69 75 78 75 77
 (1527802895.952689)  can0  106   [8]  78 64 64 66 6B 75 76 6D
 (1527802895.955613)  can0  107   [8]  6F 63 64 66 69 69 6C 6A
 (1527802896.036248)  can0  100   [8]  00 66 66 68 68 6C 77 78
 (1527802896.039089)  can0  101   [8]  75 63 61 63 67 71 79 78
 (1527802896.041984)  can0  102   [8]  75 63 62 65 6A 73 7E 7D
 (1527802896.044930)  can0  103   [8]  78 62 63 6A 75 7C 7E 7E
 (1527802896.047860)  can0  104   [8]  7B 65 67 76 7C 7E 7B 7C
 (1527802896.050776)  can0  105   [8]  7B 62 68 73 76 6E 75 74
 (1527802896.053697)  can0  106   [8]  77 64 64 68 6A 71 72 6B
 (1527802896.056584)  can0  107   [8]  6C 63 64 66 67 68 68 67
 (1527802896.137202)  can0  100   [8]  00 66 68 69 6A 72 79 79
 (1527802896.140064)  can0  101   [8]  76 61 64 67 6A 76 7C 78
 (1527802896.142992)  can0  102   [8]  75 65 6A 74 7E 80 7F 7A
 (1527802896.145914)  can0  103   [8]  7A 68 70 7A 7F 81 7F 7A
 (1527802896.148837)  can0  104   [8]  7B 6E 79 7B 7E 7A 76 79
 (1527802896.151796)  can0  105   [8]  7C 6B 6E 75 6F 77 6B 73
 (1527802896.154695)  can0  106   [8]  78 68 68 67 6A 73 72 6A
 (1527802896.157608)  can0  107   [8]  6C 65 67 67 67 69 6A 6A
 (1527802896.238239)  can0  100   [8]  00 6B 69 6E 71 7A 76 75
 (1527802896.241086)  can0  101   [8]  74 65 67 6C 76 7D 7A 75
 (1527802896.244047)  can0  102   [8]  75 74 7C 80 80 7E 77 76
 (1527802896.246940)  can0  103   [8]  77 77 7E 7F 80 7E 6C 74
 (1527802896.249860)  can0  104   [8]  7A 79 7A 7C 7D 71 68 76
 (1527802896.252760)  can0  105   [8]  7A 72 6A 72 6F 68 6A 72
 (1527802896.255722)  can0  106   [8]  76 68 66 69 68 70 73 6A
 (1527802896.258608)  can0  107   [8]  6C 66 66 66 6A 67 6B 6A
 (1527802896.339206)  can0  100   [8]  00 6D 71 72 75 76 78 74
 (1527802896.342089)  can0  101   [8]  76 69 6C 71 7A 7A 77 74
 (1527802896.345029)  can0  102   [8]  74 7D 7F 7E 79 6B 74 75
 (1527802896.347940)  can0  103   [8]  78 7F 7C 7E 74 67 6A 73
 (1527802896.350862)  can0  104   [8]  79 7B 76 7D 69 65 67 76
 (1527802896.353812)  can0  105   [8]  79 67 74 6A 65 66 68 72
 (1527802896.356721)  can0  106   [8]  73 67 66 63 65 6F 72 6A
 (1527802896.359615)  can0  107   [8]  6A 67 64 66 68 66 6C 68
 (1527802896.440267)  can0  100   [8]  00 72 71 77 76 76 77 75
 (1527802896.443083)  can0  101   [8]  76 6C 71 79 78 77 79 76
 (1527802896.446050)  can0  102   [8]  74 7F 7E 7D 6D 6A 76 75
 (1527802896.448961)  can0  103   [8]  76 7D 7C 77 65 68 69 72
 (1527802896.451875)  can0  104   [8]  7B 76 7A 71 68 65 68 76
 (1527802896.454795)  can0  105   [8]  7A 6C 6F 66 65 66 68 74
 (1527802896.457698)  can0  106   [8]  76 66 65 65 66 70 71 6B
 (1527802896.460613)  can0  107   [8]  6A 67 66 65 68 68 6B 69
 (1527802896.541230)  can0  100   [8]  00 6F 72 76 74 72 75 73
 (1527802896.544082)  can0  101   [8]  75 69 6E 77 77 78 77 75
 (1527802896.547029)  can0  102   [8]  72 7E 7C 7A 69 69 72 74
 (1527802896.549950)  can0  103   [8]  76 7C 7B 74 64 66 6B 72
 (1527802896.552859)  can0  104   [8]  79 73 77 6E 65 65 68 75
 (1527802896.555781)  can0  105   [8]  79 69 6C 64 66 65 69 71
 (1527802896.558685)  can0  106   [8]  73 66 67 64 66 6F 72 68
 (1527802896.561605)  can0  107   [8]  6C 66 66 65 68 65 68 67
 (1527802896.642199)  can0  100   [8]  00 6D 71 74 75 74 76 76
 (1527802896.645083)  can0  101   [8]  76 6B 6E 77 78 76 78 75
 (1527802896.648049)  can0  102   [8]  75 7C 7C 7C 70 67 75 75
 (1527802896.650946)  can0  103   [8]  78 7C 7D 7C 6C 67 6A 73
 (1527802896.653856)  can0  104   [8]  79 79 76 79 68 66 67 78
 (1527802896.656781)  can0  105   [8]  78 6B 70 6A 67 66 69 73
 (1527802896.659730)  can0  106   [8]  75 67 67 67 65 71 71 6B
 (1527802896.662633)  can0  107   [8]  6C 67 67 66 69 69 6B 69
 (1527802896.743262)  can0  100   [8]  00 6D 6B 6F 76 73 74 75
 (1527802896.746109)  can0  101   [8]  75 67 68 6D 7A 76 77 76
 (1527802896.749054)  can0  102   [8]  74 6C 73 7C 7C 6A 75 75
 (1527802896.751963)  can0  103   [8]  77 79 7E 7E 7A 6A 68 74
 (1527802896.754881)  can0  104   [8]  79 7B 7D 7F 7F 6A 68 77
 (1527802896.757804)  can0  105   [8]  7A 7A 79 73 79 68 68 73
 (1527802896.760740)  can0  106   [8]  75 72 75 70 6F 73 72 6B
 (1527802896.763651)  can0  107   [8]  6C 68 6A 68 6B 69 6B 69
 (1527802896.844233)  can0  100   [8]  00 68 69 6B 72 77 76 74
 (1527802896.847080)  can0  101   [8]  75 63 64 66 75 7B 78 76
 (1527802896.850044)  can0  102   [8]  75 64 66 68 77 75 77 75
 (1527802896.852933)  can0  103   [8]  79 64 64 6E 7C 79 6D 75
 (1527802896.855855)  can0  104   [8]  7A 65 66 79 7F 7E 6F 7A
 (1527802896.858779)  can0  105   [8]  78 65 66 74 7E 7F 75 74
 (1527802896.861733)  can0  106   [8]  74 64 65 68 78 7B 78 6B
 (1527802896.864603)  can0  107   [8]  6C 68 65 66 69 71 70 6C
 (1527802896.945263)  can0  100   [8]  00 66 67 69 6E 76 76 75
 (1527802896.948081)  can0  101   [8]  75 62 62 62 6D 7A 79 75
 (1527802896.951009)  can0  102   [8]  72 62 64 65 67 78 7A 76
 (1527802896.953933)  can0  103   [8]  79 60 63 63 67 6F 7C 78
 (1527802896.956834)  can0  104   [8]  7A 63 64 65 65 6E 7C 80
 (1527802896.959757)  can0  105   [8]  7A 62 62 66 67 6C 7E 80
 (1527802896.962685)  can0  106   [8]  78 61 63 64 66 71 7B 7D
 (1527802896.965578)  can0  107   [8]  7E 63 63 65 65 68 6D 73
 (1527802897.046262)  can0  100   [8]  00 66 66 67 68 73 76 75
 (1527802897.049080)  can0  101   [8]  72 60 61 64 67 77 79 74
 (1527802897.052026)  can0  102   [8]  71 64 63 63 67 6D 78 7A
 (1527802897.054907)  can0  103   [8]  78 60 61 63 64 66 6B 7B
 (1527802897.057827)  can0  104   [8]  79 63 61 66 64 65 68 77
 (1527802897.060775)  can0  105   [8]  7E 63 63 64 66 66 69 72
 (1527802897.063684)  can0  106   [8]  7D 62 62 64 63 70 72 6D
 (1527802897.066585)  can0  107   [8]  75 65 64 64 67 68 69 69
 (1527802897.147195)  can0  100   [8]  00 69 66 68 68 72 76 78
 (1527802897.150080)  can0  101   [8]  78 62 61 62 65 74 78 78
 (1527802897.152981)  can0  102   [8]  73 64 63 63 67 68 78 7A
 (1527802897.155905)  can0  103   [8]  7D 62 61 64 65 65 69 75
 (1527802897.158816)  can0  104   [8]  7C 64 63 67 66 65 68 79
 (1527802897.161742)  can0  105   [8]  79 64 62 64 64 67 6A 75
 (1527802897.164649)  can0  106   [8]  75 62 64 65 65 70 72 6B
 (1527802897.167593)  can0  107   [8]  6D 65 65 64 67 69 6B 6B
 (1527802897.248223)  can0  100   [8]  00 66 68 69 68 6D 77 76
 (1527802897.251081)  can0  101   [8]  7A 61 63 63 65 6D 78 7A
 (1527802897.254008)  can0  102   [8]  76 63 64 65 67 67 75 7A
 (1527802897.256935)  can0  103   [8]  7D 61 62 63 65 68 69 73
 (1527802897.259856)  can0  104   [8]  7D 62 63 67 65 65 68 79
 (1527802897.262751)  can0  105   [8]  79 65 62 64 67 66 69 73
 (1527802897.265696)  can0  106   [8]  78 62 63 65 64 6F 72 69
 (1527802897.268602)  can0  107   [8]  6D 64 64 63 68 67 68 68
 (1527802897.349218)  can0  100   [8]  00 65 66 68 68 6B 77 77
 (1527802897.352079)  can0  101   [8]  79 62 63 62 64 6A 77 7A
 (1527802897.355026)  can0  102   [8]  7D 63 62 65 66 68 76 77
 (1527802897.357962)  can0  103   [8]  7B 63 62 64 64 66 6A 72
 (1527802897.360852)  can0  104   [8]  7A 61 63 65 65 66 67 76
 (1527802897.363752)  can0  105   [8]  7B 62 63 63 65 65 69 74
 (1527802897.366684)  can0  106   [8]  77 62 62 62 64 70 72 6C
 (1527802897.369576)  can0  107   [8]  6B 64 64 63 67 68 6A 6B
 (1527802897.450257)  can0  100   [8]  00 68 66 67 68 6A 75 77
 (1527802897.453075)  can0  101   [8]  79 62 61 63 64 68 76 79
 (1527802897.456024)  can0  102   [8]  7C 62 63 64 65 67 74 78
 (1527802897.458903)  can0  103   [8]  7C 61 62 64 65 67 6A 71
 (1527802897.461822)  can0  104   [8]  79 62 64 64 65 65 67 77
 (1527802897.464755)  can0  105   [8]  7A 61 63 63 65 65 68 73
 (1527802897.467685)  can0  106   [8]  76 63 64 64 66 6F 71 69
 (1527802897.470600)  can0  107   [8]  6D 65 62 65 69 68 6A 69
 (1527802897.551194)  can0  100   [8]  00 68 66 67 68 6A 75 75
 (1527802897.554074)  can0  101   [8]  79 60 61 62 64 66 75 79
 (1527802897.557003)  can0  102   [8]  7A 63 62 63 65 67 74 77
 (1527802897.559925)  can0  103   [8]  7C 60 62 62 64 68 69 73
 (1527802897.562823)  can0  104   [8]  7A 62 64 65 65 65 65 75
 (1527802897.565771)  can0  105   [8]  79 61 62 63 65 63 66 73
 (1527802897.568649)  can0  106   [8]  75 62 61 63 65 6E 73 69
 (1527802897.571573)  can0  107   [8]  69 62 64 63 66 65 69 68
 (1527802897.652235)  can0  100   [8]  00 67 67 67 65 6A 75 75
 (1527802897.655097)  can0  101   [8]  79 60 61 62 64 66 75 79
 (1527802897.657998)  can0  102   [8]  7A 63 62 63 65 67 75 79
 (1527802897.660922)  can0  103   [8]  7B 61 62 63 65 65 6A 74
 (1527802897.663848)  can0  104   [8]  7C 62 62 66 66 65 67 75
 (1527802897.666768)  can0  105   [8]  78 62 64 65 64 65 69 72
 (1527802897.669687)  can0  106   [8]  76 62 65 63 65 6E 71 69
 (1527802897.672615)  can0  107   [8]  6B 65 65 63 67 68 6B 6A
 (1527802897.753216)  can0  100   [8]  00 67 66 67 67 6A 73 77
 (1527802897.756124)  can0  101   [8]  77 61 61 62 65 68 77 7A
 (1527802897.759022)  can0  102   [8]  79 64 60 63 65 67 75 79
 (1527802897.761965)  can0  103   [8]  7B 61 62 63 65 65 6A 74
 (1527802897.764848)  can0  104   [8]  79 63 63 66 66 66 68 77
 (1527802897.767792)  can0  105   [8]  7B 63 62 64 66 65 68 74
 (1527802897.770699)  can0  106   [8]  77 62 65 63 65 6F 71 6A
 (1527802897.773638)  can0  107   [8]  6D 65 65 65 67 67 6A 69
 (1527802897.854188)  can0  100   [8]  00 68 66 68 68 6B 77 77
 (1527802897.857138)  can0  101   [8]  79 63 62 63 65 69 76 7A
 (1527802897.860039)  can0  102   [8]  7A 65 63 63 67 66 74 78
 (1527802897.862957)  can0  103   [8]  7E 61 62 63 65 64 6B 73
 (1527802897.865859)  can0  104   [8]  79 63 63 66 66 66 68 77
 (1527802897.868790)  can0  105   [8]  7B 63 62 64 65 66 69 73
 (1527802897.871711)  can0  106   [8]  75 64 62 62 65 6F 72 6B
 (1527802897.874596)  can0  107   [8]  6C 63 63 64 69 66 6A 6B
 (1527802897.955188)  can0  100   [8]  00 66 66 69 68 6B 74 78
 (1527802897.958072)  can0  101   [8]  7A 60 62 64 66 68 78 7A
 (1527802897.961011)  can0  102   [8]  7A 66 62 65 66 66 74 77
